# HZ S RI R 50
50000 -0.99887824 0.022500906
64800 -0.997528731 0.030016824
79600 -0.998678445 0.037194997
94400 -0.998689353 0.044166281
109200 -0.998158931 0.050425153
124000 -0.99792695 0.056887593
138900 -0.997529864 0.063345685
153700 -0.997119367 0.069699496
168500 -0.996460258 0.075955249
183300 -0.99586445 0.082015275
198100 -0.995354175 0.088143639
212900 -0.994759738 0.094710379
227800 -0.994058609 0.101295642
242600 -0.993041396 0.107943713
257400 -0.992491185 0.114413075
272200 -0.991547048 0.121084816
287000 -0.990489602 0.127523809
301800 -0.989631175 0.134047985
316700 -0.988597214 0.140260636
331500 -0.987792134 0.147094964
346300 -0.986455023 0.153403416
361100 -0.985549509 0.15991497
375900 -0.984171748 0.166153728
390700 -0.982984244 0.172705158
405600 -0.981709241 0.179067328
420400 -0.98040235 0.185468524
435200 -0.978949606 0.191876754
450000 -0.977491915 0.198190271
464800 -0.97609055 0.204532235
479600 -0.974661231 0.210998639
494500 -0.972995638 0.217351406
509300 -0.971349418 0.223580062
524100 -0.969567298 0.229999005
538900 -0.967912018 0.236230894
553700 -0.966117262 0.242795765
568500 -0.96466428 0.248981341
583400 -0.96267724 0.255421429
598200 -0.960964143 0.261787444
613000 -0.958972334 0.268115639
627800 -0.957066178 0.274522483
642600 -0.954761922 0.280579
657400 -0.95285952 0.286693096
672300 -0.950636625 0.292803108
687100 -0.948556363 0.299322366
701900 -0.946373343 0.305433362
716700 -0.944164335 0.311466157
731500 -0.942179024 0.317654728
746300 -0.93981558 0.3237845
761200 -0.937483847 0.32982257
776000 -0.935117125 0.335951805
790800 -0.932435035 0.342030346
805600 -0.930090606 0.348036855
820400 -0.927385032 0.354072988
835300 -0.924963116 0.360057026
850100 -0.922476887 0.366090238
864900 -0.919739007 0.372090101
879700 -0.917042434 0.37806344
894500 -0.914188265 0.384023487
909300 -0.911459028 0.389829248
924200 -0.908697903 0.395926654
939000 -0.905716001 0.401796668
953800 -0.902743935 0.407768577
968600 -0.899800479 0.413718461
983400 -0.896609187 0.419433087
998200 -0.893590092 0.425116896
1013100 -0.890507221 0.431118458
1027900 -0.887282311 0.436876565
1042700 -0.8840034 0.442612767
1057500 -0.880940437 0.44839099
1072300 -0.87751019 0.454078137
1087100 -0.87430036 0.459731251
1102000 -0.870903968 0.465247064
1116800 -0.867428004 0.471209526
1131600 -0.863815665 0.476651132
1146400 -0.860379755 0.482467085
1161200 -0.856608152 0.487939447
1176000 -0.852768242 0.493404299
1190900 -0.849035203 0.499098956
1205700 -0.845352947 0.504535317
1220500 -0.841439604 0.509779095
1235300 -0.837640821 0.515233039
1250100 -0.833697259 0.520482182
1264900 -0.8297683 0.526068449
1279800 -0.825967013 0.531314134
1294600 -0.821818351 0.536512434
1309400 -0.817751109 0.541870117
1324200 -0.813517689 0.547045886
1339000 -0.809376418 0.552162349
1353800 -0.805161118 0.557393729
1368700 -0.800909698 0.562449574
1383500 -0.796505212 0.567844986
1398300 -0.792075276 0.572733044
1413100 -0.787584781 0.577531993
1427900 -0.783072471 0.582557797
1442700 -0.77840656 0.587465047
1457600 -0.773738443 0.592173993
1472400 -0.769231021 0.596897006
1487200 -0.764366984 0.601636052
1502000 -0.759846627 0.606353521
1516800 -0.754940629 0.61107558
1531700 -0.750227212 0.61551249
1546517 -0.745337307 0.620194494
1561317 -0.740168631 0.62478131
1576117 -0.735228598 0.629185259
1590917 -0.730147182 0.633559226
1605717 -0.724951267 0.637568295
1620517 -0.719910979 0.642161905
1635417 -0.714860856 0.646293878
1650217 -0.709683418 0.650356471
1665017 -0.704306364 0.65434587
1679817 -0.698935091 0.658086001
1694617 -0.693561792 0.662386298
1709417 -0.688305377 0.666100502
1724317 -0.683254539 0.669970929
1739117 -0.677539765 0.673462152
1753917 -0.6720438 0.677151203
1768717 -0.666751146 0.6808362
1783517 -0.661388158 0.684304058
1798317 -0.65583229 0.687552452
1813217 -0.650152266 0.691042244
1828017 -0.644547224 0.694334566
1842817 -0.639187932 0.697363257
1857617 -0.633557677 0.70044595
1872417 -0.627904474 0.703327417
1887217 -0.62212491 0.706626772
1902117 -0.616640031 0.709462344
1916917 -0.611138939 0.712167441
1931717 -0.605506479 0.71488732
1946517 -0.599766731 0.717566013
1961317 -0.594137668 0.720169603
1976117 -0.588332176 0.722792327
1991017 -0.582686662 0.72541505
2005817 -0.577020347 0.727503061
2020617 -0.571368634 0.72977662
2035417 -0.565659761 0.731987774
2050217 -0.559825718 0.734325706
2065017 -0.554348051 0.736382544
2079917 -0.548521578 0.738441467
2094717 -0.543055772 0.740053713
2109517 -0.537150025 0.741803407
2124317 -0.531625568 0.743535697
2139117 -0.52608329 0.745527446
2153917 -0.520586252 0.747167229
2168817 -0.515013337 0.748749017
2183617 -0.509548366 0.750143349
2198417 -0.503955423 0.751799285
2213217 -0.498609811 0.753284692
2228017 -0.493080675 0.754499197
2242817 -0.487659394 0.755683004
2257717 -0.481963783 0.756868481
2272517 -0.476377785 0.758002579
2287317 -0.471059083 0.759193956
2302117 -0.465761572 0.760364651
2316917 -0.460422635 0.761150181
2331817 -0.455023765 0.762165725
2346617 -0.449632674 0.762804031
2361417 -0.444351881 0.763861954
2376217 -0.439270883 0.764527559
2391017 -0.434128463 0.765165925
2405817 -0.429004192 0.76555705
2420717 -0.423812031 0.766132652
2435517 -0.418615043 0.766881585
2450317 -0.413623511 0.767523705
2465117 -0.408666163 0.767898261
2479917 -0.403478056 0.768231987
2494717 -0.398424565 0.768880784
2509617 -0.393597602 0.769250094
2524417 -0.388797074 0.769412815
2539217 -0.383738547 0.769804716
2554017 -0.378928661 0.770169258
2568817 -0.374089151 0.770095288
2583617 -0.369341373 0.770192384
2598517 -0.364352971 0.770652472
2613317 -0.359654575 0.770696818
2628117 -0.355283081 0.77060312
2642917 -0.350508242 0.770506024
2657717 -0.345701009 0.77030605
2672517 -0.3413046 0.770372986
2687417 -0.336783081 0.770377874
2702217 -0.332297652 0.770046949
2717017 -0.327855199 0.769971489
2731817 -0.323308259 0.76969093
2746617 -0.319034487 0.769533097
2761417 -0.314634978 0.769103705
2776317 -0.310307621 0.768898427
2791117 -0.306028395 0.768734574
2805917 -0.301891326 0.768330335
2820717 -0.297424852 0.767803072
2835517 -0.293263316 0.767488956
2850317 -0.289073586 0.767029166
2865217 -0.285101979 0.766552329
2880017 -0.28091681 0.766214132
2894817 -0.276934206 0.765661597
2909617 -0.272779881 0.765209436
2924417 -0.268879443 0.76475197
2939217 -0.265104562 0.764109969
2954117 -0.260960459 0.763323187
2968917 -0.257167547 0.762569248
2983717 -0.253242641 0.762314915
2998517 -0.24956578 0.761692762
3013317 -0.245856955 0.76068598
3028217 -0.242113471 0.760086297
3043034 -0.238110721 0.759430229
3057834 -0.234503746 0.758857011
3072634 -0.230995044 0.758052766
3087434 -0.227510303 0.757523357
3102234 -0.223674461 0.756605207
3117034 -0.220287576 0.756005823
3131934 -0.216595858 0.755334734
3146734 -0.213294878 0.754708945
3161534 -0.209692209 0.753703176
3176334 -0.206331238 0.752812027
3191134 -0.202951386 0.752253532
3205934 -0.199592545 0.751475453
3220834 -0.196379572 0.750666558
3235634 -0.192897632 0.749763667
3250434 -0.189628496 0.748803257
3265234 -0.186146035 0.747883141
3280034 -0.182969227 0.747134566
3294834 -0.18000634 0.746570587
3309734 -0.176454707 0.745444476
3324534 -0.173220336 0.744567155
3339334 -0.170013308 0.74357599
3354134 -0.167145833 0.742822408
3368934 -0.164023905 0.741866171
3383734 -0.161123469 0.741041719
3398634 -0.158104583 0.739877104
3413434 -0.154943063 0.739188611
3428234 -0.152083232 0.738237559
3443034 -0.149148434 0.73720479
3457834 -0.146193653 0.73618561
3472634 -0.143241167 0.735233545
3487534 -0.140380978 0.734332323
3502334 -0.137578204 0.733389079
3517134 -0.135003387 0.732479929
3531934 -0.132096797 0.731372296
3546734 -0.129305481 0.730424821
3561534 -0.12648198 0.729316711
3576434 -0.1237019 0.728552639
3591234 -0.121404074 0.727536201
3606034 -0.118380658 0.726416468
3620834 -0.115643344 0.725490152
3635634 -0.113316893 0.724470794
3650434 -0.110596813 0.723617613
3665334 -0.108019277 0.722391784
3680134 -0.105602078 0.721436202
3694934 -0.102854527 0.72060275
3709734 -0.1004076 0.719548761
3724534 -0.098114863 0.718474626
3739334 -0.09565071 0.717564404
3754234 -0.093252047 0.716671586
3769034 -0.090789854 0.715455889
3783834 -0.088352404 0.714637815
3798634 -0.086032919 0.713507711
3813434 -0.083766184 0.712612152
3828334 -0.08138521 0.711721062
3843134 -0.078963853 0.710682451
3857934 -0.07660833 0.709800839
3872734 -0.07441274 0.70873177
3887534 -0.0722749 0.707999587
3902334 -0.069722808 0.706983625
3917234 -0.067609146 0.70596528
3932034 -0.065436579 0.705105245
3946834 -0.063038215 0.704148828
3961634 -0.06098761 0.702935755
3976434 -0.058824606 0.702062726
3991234 -0.056676536 0.700884342
4006134 -0.054429858 0.700009703
4020934 -0.052382167 0.698971748
4035734 -0.05036829 0.698067784
4050534 -0.048021946 0.697020947
4065334 -0.046007379 0.695962309
4080134 -0.044080968 0.695186316
4095034 -0.042033247 0.694002985
4109834 -0.039972275 0.693138062
4124634 -0.037983492 0.692321181
4139434 -0.035871773 0.691343009
4154234 -0.033999636 0.690543115
4169034 -0.03202458 0.689661264
4183934 -0.030053207 0.688328742
4198734 -0.028182512 0.687619686
4213534 -0.026188956 0.686689436
4228334 -0.024571023 0.685774385
4243134 -0.022408373 0.684951066
4257934 -0.020477822 0.683884441
4272834 -0.018887218 0.683012723
4287634 -0.016973271 0.682226836
4302434 -0.015317535 0.681161463
4317234 -0.013696166 0.680053293
4332034 -0.011706873 0.679165124
4346834 -0.010046265 0.678258717
4361734 -0.008300013 0.677296698
4376534 -0.006548122 0.676477432
4391334 -0.004723605 0.675668954
4406134 -0.003114775 0.674507856
4420934 -0.001292471 0.673522353
4435734 0.000575298 0.672761738
4450634 0.002203422 0.671727716
4465434 0.003903599 0.670886993
4480234 0.005651998 0.669971346
4495034 0.007340321 0.669085562
4509834 0.009135097 0.668294727
4524734 0.010664215 0.66719979
4539551 0.012241001 0.666394174
4554351 0.014206854 0.665628254
4569151 0.015518391 0.664733052
4583951 0.017245603 0.663814961
4598751 0.018897633 0.662858426
4613551 0.020561777 0.662105023
4628451 0.021942595 0.661311686
4643251 0.023582443 0.6604923
4658051 0.025113647 0.659709572
4672851 0.026881931 0.658843755
4687651 0.02811446 0.657971262
4702451 0.029513722 0.656995296
4717351 0.031088106 0.656197249
4732151 0.032784961 0.655441939
4746951 0.034084338 0.654526829
4761751 0.035481449 0.653678536
4776551 0.037088312 0.652752935
4791351 0.038601569 0.652071058
4806251 0.040063921 0.651112139
4821051 0.041357226 0.650173485
4835851 0.042708739 0.649577558
4850651 0.044147823 0.648566424
4865451 0.045510396 0.647884249
4880251 0.047114454 0.647137522
4895151 0.048322044 0.646137177
4909951 0.04983608 0.645296275
4924751 0.051208682 0.644617319
4939551 0.052337061 0.643982708
4954351 0.053980227 0.643164873
4969151 0.055312056 0.642208635
4984051 0.056620545 0.641592323
4998851 0.058069366 0.640733242
5013651 0.059155754 0.639949917
5028451 0.060593839 0.639354586
5043251 0.061899453 0.638533115
5058051 0.063268527 0.637632787
5072951 0.064384579 0.63684386
5087751 0.065706148 0.63607639
5102551 0.067016236 0.63523513
5117351 0.068417139 0.634606897
5132151 0.069631457 0.633784234
5146951 0.07099305 0.633054971
5161851 0.072195932 0.63232541
5176651 0.07332284 0.63154751
5191451 0.074646443 0.630796134
5206251 0.075853385 0.630071759
5221051 0.0771375 0.629183471
5235851 0.078294299 0.628480374
5250751 0.079333834 0.627800762
5265551 0.08057899 0.627125442
5280351 0.081934921 0.62613064
5295151 0.083010382 0.625394344
5309951 0.084368556 0.624869644
5324851 0.085533969 0.624135375
5339651 0.086649544 0.62345618
5354451 0.087824568 0.622474014
5369251 0.08905439 0.622027993
5384051 0.090261839 0.621430754
5398851 0.091339193 0.620784878
5413751 0.092548504 0.619841277
5428551 0.093752376 0.61914587
5443351 0.094700179 0.618480265
5458151 0.095886245 0.617732763
5472951 0.097153 0.617100238
5487751 0.098107434 0.61633557
5502651 0.099113643 0.615547835
5517451 0.100321568 0.614900231
5532251 0.101414181 0.614287257
5547051 0.102499686 0.613557398
5561851 0.103441976 0.612960278
5576651 0.104504182 0.612225115
5591551 0.105718545 0.611618995
5606351 0.10688547 0.610902965
5621151 0.107866168 0.6102494
5635951 0.109111532 0.609638929
5650751 0.110119119 0.608828365
5665551 0.111005455 0.60811907
5680451 0.112234994 0.607578933
5695251 0.113407 0.606997728
5710051 0.114354006 0.606496572
5724851 0.115455031 0.605687737
5739651 0.116344824 0.605208098
5754451 0.117510102 0.604410529
5769351 0.118419542 0.603696465
5784151 0.119303219 0.603214979
5798951 0.120457768 0.602571427
5813751 0.121297113 0.601889789
5828551 0.122411951 0.601203083
5843351 0.123374715 0.600482583
5858251 0.124410137 0.6000247
5873051 0.125313565 0.599323034
5887851 0.126148059 0.598798871
5902651 0.12716265 0.598053991
5917451 0.1281109 0.597367763
5932251 0.129292964 0.596837878
5947151 0.130265831 0.596384942
5961951 0.131098538 0.595538318
5976751 0.132263049 0.595025658
5991551 0.132944509 0.594604492
6006351 0.134047046 0.593975365
6021251 0.135028943 0.593088984
6036068 0.135712832 0.592738449
6050868 0.136929005 0.591997444
6065668 0.137740224 0.591438233
6080468 0.138715833 0.590760588
6095268 0.139634013 0.590146362
6110068 0.140650764 0.589619278
6124968 0.141543284 0.589015841
6139768 0.142343878 0.588481664
6154568 0.143214106 0.587858676
6169368 0.144390463 0.587469279
6184168 0.145140513 0.586561322
6198968 0.145983248 0.586223602
6213868 0.146962329 0.585457086
6228668 0.147819519 0.58491683
6243468 0.148682028 0.58432275
6258268 0.149677827 0.583910942
6273068 0.150422364 0.583323657
6287868 0.151252344 0.58275038
6302768 0.152112439 0.582177519
6317568 0.152840733 0.581387341
6332368 0.153775483 0.581039547
6347168 0.154712468 0.58058381
6361968 0.155473172 0.579901993
6376768 0.156271606 0.579632103
6391668 0.157390922 0.57902038
6406468 0.158089205 0.578647315
6421268 0.159068852 0.577942252
6436068 0.159679859 0.577543139
6450868 0.16056855 0.576993584
6465668 0.161378622 0.576507449
6480568 0.162376403 0.575845122
6495368 0.162875548 0.575417518
6510168 0.163754343 0.575060367
6524968 0.164604604 0.574422776
6539768 0.165484264 0.573973834
6554568 0.166173905 0.573381841
6569468 0.167306303 0.572798311
6584268 0.168103411 0.572270631
6599068 0.169004082 0.571474075
6613868 0.170016989 0.570742368
6628668 0.170983135 0.570012211
6643468 0.171729296 0.5696882
6658368 0.17236182 0.569192349
6673168 0.17341426 0.56855601
6687968 0.174127921 0.568078994
6702768 0.17521198 0.567554771
6717568 0.175798177 0.567073881
6732368 0.176666185 0.566379249
6747268 0.1773974 0.565999031
6762068 0.178297504 0.56531769
6776868 0.179027169 0.564860701
6791668 0.17967312 0.564145803
6806468 0.180474594 0.563604593
6821368 0.181214556 0.563194215
6836168 0.181953698 0.562879323
6850968 0.182657346 0.562191963
6865768 0.183408722 0.561905145
6880568 0.184092909 0.561349332
6895368 0.184747472 0.560752451
6910268 0.185610011 0.560428023
6925068 0.186144605 0.560010135
6939868 0.18711771 0.559570968
6954668 0.187765896 0.559029638
6969468 0.188687875 0.558473527
6984268 0.189447149 0.558048903
6999168 0.190205648 0.557749092
7013968 0.191111564 0.557138323
7028768 0.191590458 0.556879281
7043568 0.192317709 0.556519746
7058368 0.19301483 0.555988192
7073168 0.193655461 0.555545926
7088068 0.194456413 0.555054008
7102868 0.195142835 0.554546892
7117668 0.195904091 0.554030537
7132468 0.196677848 0.553561985
7147268 0.197367593 0.553108215
7162068 0.197959855 0.552573859
7176968 0.198815807 0.552078902
7191768 0.199360549 0.551520824
7206568 0.200135022 0.551048338
7221368 0.200421646 0.550626993
7236168 0.201515957 0.550246477
7250968 0.202079445 0.549667537
7265868 0.20280838 0.549328684
7280668 0.203372895 0.548746466
7295468 0.204355269 0.548509955
7310268 0.204899147 0.547935664
7325068 0.205623403 0.547451257
7339868 0.206140086 0.547080218
7354768 0.207024306 0.546696782
7369568 0.207708477 0.546211361
7384368 0.208513885 0.545820772
7399168 0.209092468 0.545210599
7413968 0.209606051 0.544767498
7428768 0.210360467 0.544498562
7443668 0.211108252 0.543799221
7458468 0.211917445 0.543505966
7473268 0.212412729 0.542870402
7488068 0.212991654 0.542574465
7502868 0.213686153 0.542084336
7517768 0.214532613 0.541674435
7532585 0.215054512 0.541212737
7547385 0.215658828 0.540621936
7562185 0.216426715 0.540436029
7576985 0.216947466 0.540001749
7591785 0.217763602 0.539648234
7606585 0.21824932 0.539222836
7621485 0.219013452 0.538769006
7636285 0.219623237 0.53824526
7651085 0.220314279 0.537912786
7665885 0.220893368 0.537348508
7680685 0.221664816 0.536967933
7695485 0.222172901 0.536686778
7710385 0.223007187 0.536153972
7725185 0.223441183 0.535711526
7739985 0.224061608 0.535347878
7754785 0.224710673 0.534753024
7769585 0.225341022 0.534531235
7784385 0.225961267 0.53408426
7799285 0.226592332 0.533672451
7814085 0.227008506 0.533186793
7828885 0.2277738 0.532788097
7843685 0.228599071 0.532361984
7858485 0.229087918 0.531972169
7873285 0.229554101 0.531499326
7888185 0.230322048 0.531291365
7902985 0.230957627 0.530690252
7917785 0.231714338 0.530305802
7932585 0.232067853 0.530104756
7947385 0.232830569 0.529537141
7962185 0.233456149 0.5291633
7977085 0.233932986 0.528744518
7991885 0.234508439 0.528476119
8006685 0.235023975 0.527989208
8021485 0.235781699 0.527528405
8036285 0.236184284 0.527166962
8051085 0.236764445 0.526767373
8065985 0.237275898 0.526365697
8080785 0.238033816 0.525836467
8095585 0.238519281 0.525532484
8110385 0.239042744 0.525131702
8125185 0.239541396 0.524697959
8139985 0.240229219 0.52413398
8154885 0.240853562 0.523955285
8169685 0.241396412 0.523366928
8184485 0.241767302 0.523171126
8199285 0.242608219 0.522854328
8214085 0.243193835 0.522349834
8228885 0.243634015 0.522014915
8243785 0.244115531 0.521834075
8258585 0.244746267 0.521251022
8273385 0.245304971 0.520860671
8288185 0.245959535 0.520391821
8302985 0.246489509 0.520198404
8317885 0.246984437 0.519644081
8332685 0.247541174 0.519307732
8347485 0.24811837 0.519229412
8362285 0.248644784 0.518657863
8377085 0.249306946 0.518455088
8391885 0.2498506 0.518052637
8406785 0.250444084 0.517748296
8421585 0.250812202 0.517335772
8436385 0.251455008 0.517117798
8451185 0.252125352 0.516654491
8465985 0.252527713 0.516126751
8480785 0.253163725 0.51566863
8495685 0.253675609 0.515255928
8510485 0.254144936 0.514860749
8525285 0.254865825 0.514599561
8540085 0.255263298 0.514086186
8554885 0.255900591 0.513832509
8569685 0.256414949 0.513629019
8584585 0.256970018 0.513072311
8599385 0.257521897 0.512751698
8614185 0.258109897 0.512404739
8628985 0.258612185 0.512040138
8643785 0.25909987 0.511666893
8658585 0.259821087 0.511149883
8673485 0.260139673 0.510679543
8688285 0.260830253 0.510666131
8703085 0.261159867 0.510301887
8717885 0.261915326 0.509860754
8732685 0.262301474 0.509506762
8747485 0.262819439 0.509197473
8762385 0.263275593 0.508779525
8777185 0.2637887 0.508478999
8791985 0.264202713 0.508111298
8806785 0.264893531 0.507742226
8821585 0.265319257 0.50723493
8836385 0.265788614 0.507005691
8851285 0.266171663 0.506682276
8866085 0.266658902 0.506382822
8880885 0.26727885 0.50600475
8895685 0.267710983 0.505619883
8910485 0.268228769 0.505316793
8925285 0.26891449 0.505084097
8940185 0.269299089 0.504660606
8954985 0.269866406 0.504346251
8969785 0.270352572 0.504019439
8984585 0.2708458 0.503637969
8999385 0.271439731 0.503372371
9014285 0.271849632 0.503270328
9029102 0.272389054 0.502775132
9043902 0.272923678 0.502333223
9058702 0.273407548 0.502033948
9073502 0.273849666 0.501865088
9088302 0.274314522 0.501400291
9103102 0.274831414 0.501152992
9118002 0.275373458 0.500880956
9132802 0.275803059 0.500297069
9147602 0.276130527 0.500208735
9162402 0.27675724 0.499723106
9177202 0.277136683 0.499356061
9192002 0.277596563 0.499073177
9206902 0.277905732 0.498785585
9221702 0.278590321 0.49833855
9236502 0.278760254 0.498118728
9251302 0.279602378 0.497681647
