# HZ S RI R 50
50000 -0.985913634 0.012882138
64800 -0.984125137 0.016288187
79600 -0.982936024 0.018998699
94400 -0.981608867 0.021109256
109200 -0.980488121 0.022861361
124000 -0.979105174 0.024462748
138900 -0.978257358 0.02599834
153700 -0.977210342 0.02729329
168500 -0.976144611 0.028454706
183300 -0.97522217 0.029723275
198100 -0.974187791 0.030875496
212900 -0.97350651 0.032157432
227800 -0.972717046 0.033511631
242600 -0.971787631 0.034934341
257400 -0.971035182 0.036170173
272200 -0.97046566 0.037555519
287000 -0.969567775 0.03900602
301800 -0.968874514 0.040163397
316700 -0.968177139 0.041446201
331500 -0.967546939 0.042458765
346300 -0.966781258 0.043926566
361100 -0.966051101 0.044984012
375900 -0.965351998 0.046290449
390700 -0.964678943 0.047374077
405600 -0.964033067 0.048567634
420400 -0.963225662 0.049600042
435200 -0.962695479 0.050889439
450000 -0.961999714 0.051993627
464800 -0.961411893 0.052974838
479600 -0.960671544 0.054095175
494500 -0.960263729 0.055241558
509300 -0.959706187 0.056373037
524100 -0.958901226 0.057590212
538900 -0.958484053 0.058582957
553700 -0.957961797 0.059762254
568500 -0.957284748 0.060740679
583400 -0.956780612 0.061907634
598200 -0.956251621 0.062761314
613000 -0.955810546 0.064051739
627800 -0.955180287 0.064995773
642600 -0.954731166 0.065994776
657400 -0.954069733 0.067345239
672300 -0.953489661 0.068259485
687100 -0.952933967 0.069259934
701900 -0.952492654 0.0701503
716700 -0.952076196 0.071103855
731500 -0.951464653 0.072156071
746300 -0.951004147 0.073262184
761200 -0.9504745 0.074046656
776000 -0.950055658 0.075209252
790800 -0.94941169 0.076277725
805600 -0.949116528 0.076991289
820400 -0.9484362 0.078004255
835300 -0.947974979 0.078911252
850100 -0.947585105 0.079956091
864900 -0.947036981 0.081027574
879700 -0.946638286 0.081790335
894500 -0.946085333 0.082801118
909300 -0.94568926 0.083540432
924200 -0.945189833 0.084594622
939000 -0.944635689 0.085486404
953800 -0.944329798 0.086260117
968600 -0.943741559 0.087410733
983400 -0.943284332 0.088307358
998200 -0.942791104 0.089298948
1013100 -0.942285001 0.090009711
1027900 -0.94212985 0.090983331
1042700 -0.941318273 0.091996453
1057500 -0.940882265 0.092725485
1072300 -0.940534353 0.093692161
1087100 -0.939958989 0.094631969
1102000 -0.939459025 0.095590606
1116800 -0.938947379 0.096357241
1131600 -0.938866913 0.097360186
1146400 -0.93822664 0.09830562
1161200 -0.937776446 0.0992807
1176000 -0.937208712 0.099954925
1190900 -0.936839044 0.100948542
1205700 -0.93639642 0.101790972
1220500 -0.93605566 0.102672442
1235300 -0.935386478 0.103547185
1250100 -0.935011029 0.104597009
1264900 -0.93457657 0.105298854
1279800 -0.934216976 0.106094799
1294600 -0.93373835 0.10696917
1309400 -0.933366894 0.107807219
1324200 -0.932819306 0.108564801
1339000 -0.932523667 0.109523199
1353800 -0.932086408 0.110465489
1368700 -0.931700587 0.111252196
1383500 -0.931163668 0.112106636
1398300 -0.930758714 0.112832009
1413100 -0.93028444 0.113721586
1427900 -0.929911673 0.114696867
1442700 -0.929362118 0.11547552
1457600 -0.929066121 0.116297006
1472400 -0.928721845 0.117124281
1487200 -0.928227066 0.118029594
1502000 -0.92773801 0.118792466
1516800 -0.927608549 0.119600191
1531700 -0.926954865 0.120654687
1546517 -0.926597654 0.121159158
1561317 -0.925915896 0.122133485
1576117 -0.925655782 0.122867628
1590917 -0.925187528 0.123647235
1605717 -0.924946546 0.12468215
1620517 -0.924403846 0.125511959
1635417 -0.923894762 0.126294597
1650217 -0.923601984 0.12705861
1665017 -0.92310214 0.127924725
1679817 -0.922605097 0.128715708
1694617 -0.922119855 0.129387676
1709417 -0.921894013 0.130174681
1724317 -0.921462059 0.13109219
1739117 -0.921128153 0.132050842
1753917 -0.920862853 0.132716134
1768717 -0.920474886 0.13340646
1783517 -0.920069038 0.134265407
1798317 -0.919519364 0.135099992
1813217 -0.919288158 0.135721161
1828017 -0.918780028 0.1364412
1842817 -0.918385684 0.137234076
1857617 -0.917922258 0.138007909
1872417 -0.917648196 0.13883683
1887217 -0.917227864 0.139745324
1902117 -0.916785955 0.140432342
1916917 -0.916509687 0.141173347
1931717 -0.916067838 0.141943633
1946517 -0.915482342 0.142740428
1961317 -0.915138185 0.143586561
1976117 -0.914741039 0.144309684
1991017 -0.914374768 0.14517419
2005817 -0.913903117 0.145904794
2020617 -0.913623213 0.146569967
2035417 -0.912972211 0.147519305
2050217 -0.912534832 0.148313209
2065017 -0.912191569 0.149107486
2079917 -0.911830663 0.149679988
2094717 -0.911446511 0.150443553
2109517 -0.911004543 0.151173323
2124317 -0.9107005 0.151961237
2139117 -0.910189867 0.152489066
2153917 -0.90984416 0.15343751
2168817 -0.909413039 0.154050141
2183617 -0.909197986 0.154868721
2198417 -0.908738136 0.155520156
2213217 -0.908363759 0.156232401
2228017 -0.907984137 0.157129645
2242817 -0.907595872 0.157863825
2257717 -0.907117187 0.158690631
2272517 -0.90672326 0.159317687
2287317 -0.906315147 0.160065576
2302117 -0.905941784 0.16080138
2316917 -0.905564427 0.161557257
2331817 -0.90500009 0.162388578
2346617 -0.904749691 0.163134589
2361417 -0.904213905 0.16372931
2376217 -0.903803884 0.164546847
2391017 -0.903508663 0.165117561
2405817 -0.903153479 0.165784776
2420717 -0.902849435 0.166559055
2435517 -0.90238738 0.167277112
2450317 -0.90195626 0.167928114
2465117 -0.901526629 0.168719708
2479917 -0.901149153 0.169428899
2494717 -0.900710463 0.170044511
2509617 -0.900295495 0.170923486
2524417 -0.900057137 0.171727403
2539217 -0.899576961 0.172498956
2554017 -0.899351537 0.173370137
2568817 -0.899121463 0.173916116
2583617 -0.898667156 0.174793407
2598517 -0.89837265 0.175434678
2613317 -0.897885441 0.176251158
2628117 -0.897633194 0.176908269
2642917 -0.897260963 0.177631646
2657717 -0.896907031 0.17831771
2672517 -0.896472334 0.178966552
2687417 -0.896231234 0.179708048
2702217 -0.895804703 0.180361211
2717017 -0.89543873 0.181070223
2731817 -0.895224392 0.181712344
2746617 -0.894716441 0.182335808
2761417 -0.894243359 0.182980805
2776317 -0.893624246 0.183557346
2791117 -0.893587589 0.184371367
2805917 -0.893168807 0.185244262
2820717 -0.892635524 0.185903608
2835517 -0.892140209 0.18666473
2850317 -0.891804397 0.187472596
2865217 -0.891515851 0.188154384
2880017 -0.891174495 0.188728019
2894817 -0.890816509 0.189365908
2909617 -0.890382528 0.190016523
2924417 -0.889833092 0.190722167
2939217 -0.889535009 0.19140914
2954117 -0.889298379 0.19202964
2968917 -0.888738751 0.192765459
2983717 -0.888424098 0.193517431
2998517 -0.888140201 0.194192647
3013317 -0.887739837 0.194893613
3028217 -0.887226998 0.195500433
3043034 -0.887282907 0.196226865
3057834 -0.886545836 0.196762129
3072634 -0.886346161 0.197506889
3087434 -0.885961651 0.198359131
3102234 -0.885465443 0.198828801
3117034 -0.884978115 0.199521958
3131934 -0.884723424 0.20015718
3146734 -0.88428694 0.200823336
3161534 -0.883970499 0.201483115
3176334 -0.883552968 0.202092856
3191134 -0.88316822 0.202698439
3205934 -0.882747352 0.203641861
3220834 -0.882396817 0.20413725
3235634 -0.882035315 0.204742997
3250434 -0.881682753 0.205520883
3265234 -0.881283521 0.206146433
3280034 -0.880928158 0.206817775
3294834 -0.880747497 0.207557886
3309734 -0.880398631 0.208085969
3324534 -0.879846513 0.208925545
3339334 -0.87951827 0.209526181
3354134 -0.879052937 0.210189834
3368934 -0.878790438 0.210817322
3383734 -0.878484129 0.211530238
3398634 -0.878144979 0.212255492
3413434 -0.87780261 0.212822213
3428234 -0.877332508 0.213464513
3443034 -0.877013921 0.214116588
3457834 -0.876681089 0.214659497
3472634 -0.876329958 0.215602502
3487534 -0.875807762 0.216090336
3502334 -0.875478088 0.21675001
3517134 -0.874899446 0.217368543
3531934 -0.874675154 0.217983886
3546734 -0.874287962 0.218681752
3561534 -0.873799145 0.219311997
3576434 -0.873427927 0.219915419
3591234 -0.873059034 0.220652103
3606034 -0.87277168 0.221354633
3620834 -0.872336387 0.221966266
3635634 -0.872087299 0.222513616
3650434 -0.871641218 0.22318229
3665334 -0.871207475 0.223802387
3680134 -0.87094146 0.224494904
3694934 -0.870630562 0.224966451
3709734 -0.870140969 0.225607991
3724534 -0.869760394 0.226379171
3739334 -0.869379878 0.226835846
3754234 -0.8689785 0.227431893
3769034 -0.868754088 0.228141069
3783834 -0.868400096 0.228792801
3798634 -0.867924928 0.229450732
3813434 -0.867385983 0.230002582
3828334 -0.867100715 0.230648905
3843134 -0.866612255 0.231181278
3857934 -0.86652714 0.231859758
3872734 -0.866145789 0.232417419
3887534 -0.865862488 0.232996076
3902334 -0.865305244 0.23381488
3917234 -0.864968895 0.234489291
3932034 -0.864751219 0.235018774
3946834 -0.864314198 0.235867023
3961634 -0.863907933 0.236334443
3976434 -0.863429963 0.236836656
3991234 -0.863186895 0.237521559
4006134 -0.862787961 0.238152891
4020934 -0.862437009 0.238876298
4035734 -0.862002849 0.239368274
4050534 -0.861617982 0.240048602
4065334 -0.861287057 0.240659147
4080134 -0.860691189 0.241343975
4095034 -0.860394001 0.241729646
4109834 -0.859936892 0.24248974
4124634 -0.859815061 0.242996215
4139434 -0.859439313 0.243648052
4154234 -0.859101295 0.244369208
4169034 -0.858613193 0.24493575
4183934 -0.858454406 0.24563387
4198734 -0.858091771 0.24623546
4213534 -0.857782661 0.24679327
4228334 -0.857451081 0.247556865
4243134 -0.857021808 0.248031377
4257934 -0.856768369 0.248528212
4272834 -0.856376051 0.249132037
4287634 -0.856005489 0.249823644
4302434 -0.855514883 0.250486224
4317234 -0.855294942 0.251035988
4332034 -0.85486114 0.251548379
4346834 -0.854531884 0.252042263
4361734 -0.854226946 0.252678602
4376534 -0.853773951 0.25334537
4391334 -0.853444874 0.254002273
4406134 -0.852901816 0.254669159
4420934 -0.852611541 0.255128741
4435734 -0.852189779 0.255775243
4450634 -0.851837456 0.25649333
4465434 -0.85145241 0.257172971
4480234 -0.851044356 0.257651031
4495034 -0.850609779 0.2582165
4509834 -0.850205183 0.258958667
4524734 -0.849797248 0.259547412
4539551 -0.849485754 0.260145217
4554351 -0.849089086 0.260824084
4569151 -0.848920941 0.261331826
4583951 -0.848459482 0.261906117
4598751 -0.848184883 0.262455463
4613551 -0.847789525 0.26307556
4628451 -0.847331345 0.263780534
4643251 -0.847076892 0.264323353
4658051 -0.846777379 0.264923691
4672851 -0.846445441 0.265479594
4687651 -0.84617716 0.265984266
4702451 -0.845736265 0.266717553
4717351 -0.845332562 0.267307668
4732151 -0.844924628 0.267847865
4746951 -0.844528019 0.268364578
4761751 -0.844203591 0.268882483
4776551 -0.843863606 0.269369989
4791351 -0.843276381 0.270065248
4806251 -0.842932522 0.270580857
4821051 -0.84265989 0.271163135
4835851 -0.842250585 0.271540433
4850651 -0.841723084 0.272268742
4865451 -0.841659605 0.272846519
4880251 -0.841148138 0.273441106
4895151 -0.840796887 0.2740269
4909951 -0.84045577 0.274742364
4924751 -0.839987695 0.275316894
4939551 -0.839759767 0.275907099
4954351 -0.839336931 0.276405423
4969151 -0.839008748 0.27707675
4984051 -0.838556945 0.277638196
4998851 -0.838212251 0.278214514
5013651 -0.837845981 0.278750121
5028451 -0.837566077 0.279367238
5043251 -0.836900949 0.280034989
5058051 -0.836795032 0.280483692
5072951 -0.836476862 0.281178951
5087751 -0.836115539 0.281784176
5102551 -0.835772573 0.282263725
5117351 -0.835259616 0.282938301
5132151 -0.834956288 0.283497124
5146951 -0.834572672 0.283997386
5161851 -0.834140717 0.284605681
5176651 -0.83381325 0.285219073
5191451 -0.83350104 0.28563416
5206251 -0.833134531 0.286271661
5221051 -0.832806706 0.286720156
5235851 -0.832549273 0.287333279
5250751 -0.832012832 0.287760108
5265551 -0.83175224 0.288308858
5280351 -0.831299185 0.288901656
5295151 -0.830930233 0.289380252
5309951 -0.830458879 0.290116339
5324851 -0.830261826 0.290565907
5339651 -0.829890429 0.291125386
5354451 -0.829533517 0.291695356
5369251 -0.829080164 0.292273551
5384051 -0.828752756 0.292914539
5398851 -0.828404068 0.293570607
5413751 -0.828123152 0.294142991
5428551 -0.827794849 0.294831305
5443351 -0.827367901 0.29530397
5458151 -0.82719779 0.295863777
5472951 -0.826711893 0.296491891
5487751 -0.82632023 0.296903491
5502651 -0.82594937 0.297471314
5517451 -0.825487017 0.298043459
5532251 -0.82518655 0.298711031
5547051 -0.824696898 0.299170166
5561851 -0.824261844 0.299509197
5576651 -0.824013233 0.300243318
5591551 -0.823770761 0.300976932
5606351 -0.823368847 0.301343083
5621151 -0.822966814 0.302059561
5635951 -0.822631061 0.302498608
5650751 -0.822210669 0.30299437
5665551 -0.821981966 0.303545743
5680451 -0.821560621 0.304146736
5695251 -0.821259856 0.304579496
5710051 -0.820885181 0.305114984
5724851 -0.820608675 0.305655986
5739651 -0.820171892 0.306236982
5754451 -0.819814205 0.306626349
5769351 -0.819428443 0.307317256
5784151 -0.818947911 0.307785242
5798951 -0.818690299 0.308472782
5813751 -0.81822437 0.308835476
5828551 -0.817935109 0.309424757
5843351 -0.817569196 0.309825062
5858251 -0.817214548 0.310541331
5873051 -0.817087173 0.311126917
5887851 -0.816548764 0.311519473
5902651 -0.81617403 0.312197506
5917451 -0.815905749 0.312724649
5932251 -0.815416574 0.313047647
5947151 -0.815250217 0.313670009
5961951 -0.814715802 0.314279854
5976751 -0.814383566 0.314775854
5991551 -0.813823461 0.315341413
6006351 -0.813490271 0.315802872
6021251 -0.813419938 0.316405683
6036068 -0.812850177 0.316821724
6050868 -0.812646746 0.317509502
6065668 -0.812199711 0.318065077
6080468 -0.811838209 0.318667799
6095268 -0.811410963 0.319092392
6110068 -0.81096071 0.319723218
6124968 -0.810707271 0.320194512
6139768 -0.810206234 0.32068926
6154568 -0.809812366 0.321293354
6169368 -0.809603691 0.321840405
6184168 -0.809302449 0.322316616
6198968 -0.808933794 0.322890579
6213868 -0.808527469 0.323307991
6228668 -0.808022856 0.324030309
6243468 -0.807681024 0.324215561
6258268 -0.807422757 0.325022131
6273068 -0.807067513 0.325634747
6287868 -0.806774795 0.326039075
6302768 -0.806363344 0.326378047
6317568 -0.806037902 0.326979011
6332368 -0.805511832 0.327208161
6347168 -0.805226564 0.327833414
6361968 -0.804926097 0.328395128
6376768 -0.804592192 0.32893306
6391668 -0.804389655 0.329466223
6406468 -0.80385828 0.330064594
6421268 -0.803488433 0.330449879
6436068 -0.803353369 0.331018507
6450868 -0.802898406 0.331538498
6465668 -0.802442908 0.332100272
6480568 -0.802263975 0.332531988
6495368 -0.801856279 0.332957446
6510168 -0.80166316 0.333396196
6524968 -0.801315426 0.333968251
6539768 -0.801095247 0.334581553
6554568 -0.80055958 0.334969758
6569468 -0.800222158 0.335600972
6584268 -0.799656808 0.336052417
6599068 -0.799317717 0.336746245
6613868 -0.798824191 0.337361961
6628668 -0.798298299 0.337884306
6643468 -0.798092067 0.338324874
6658368 -0.797655642 0.338930964
6673168 -0.797550141 0.339533299
6687968 -0.797093689 0.340029358
6702768 -0.796823382 0.340765625
6717568 -0.796278238 0.341233879
6732368 -0.795744538 0.341823816
6747268 -0.795468509 0.342240542
6762068 -0.795087814 0.342762291
6776868 -0.79448378 0.343378245
6791668 -0.794181525 0.343778729
6806468 -0.793815374 0.344263523
6821368 -0.793454468 0.344707041
6836168 -0.792980015 0.345085322
6850968 -0.792769014 0.345604449
6865768 -0.792320013 0.346109479
6880568 -0.792010486 0.346567511
6895368 -0.791789352 0.346997469
6910268 -0.79145193 0.347487449
6925068 -0.791185736 0.347884237
6939868 -0.790922105 0.348437637
6954668 -0.790367126 0.348958969
6969468 -0.7898795 0.349566936
6984268 -0.789496719 0.350119143
6999168 -0.789075672 0.350715488
7013968 -0.788793563 0.351403713
7028768 -0.78853625 0.351901948
7043568 -0.788127303 0.352335512
7058368 -0.787521719 0.352671176
7073168 -0.787369191 0.353118002
7088068 -0.786932229 0.353684514
7102868 -0.78652215 0.354274749
7117668 -0.786159753 0.354813277
7132468 -0.785703539 0.355391204
7147268 -0.78553003 0.35585004
7162068 -0.784964084 0.356292456
7176968 -0.784658372 0.356663584
7191768 -0.784395337 0.357174009
7206568 -0.783915877 0.357666999
7221368 -0.783718466 0.358175069
7236168 -0.783189117 0.358628839
7250968 -0.782925307 0.359176099
7265868 -0.782596051 0.359785169
7280668 -0.782281875 0.360189735
7295468 -0.781957924 0.360559135
7310268 -0.781631588 0.361040562
7325068 -0.781260192 0.361631721
7339868 -0.780893981 0.361887574
7354768 -0.780668795 0.362626105
7369568 -0.780302822 0.363133937
7384368 -0.779988467 0.363641768
7399168 -0.779558181 0.364075362
7413968 -0.778992116 0.364735931
7428768 -0.778681218 0.365040242
7443668 -0.778233289 0.365840941
7458468 -0.778038322 0.366230577
7473268 -0.777556359 0.366727501
7488068 -0.777225375 0.367082357
7502868 -0.776723682 0.367369115
7517768 -0.77648431 0.368181169
7532585 -0.776031017 0.36839202
7547385 -0.775664329 0.369075745
7562185 -0.775410175 0.369390755
7576985 -0.775054275 0.370027959
7591785 -0.774763464 0.370374232
7606585 -0.774270296 0.370968282
7621485 -0.773974061 0.371374309
7636285 -0.773694217 0.372044503
7651085 -0.773377597 0.372291386
7665885 -0.772854268 0.372930407
7680685 -0.772458076 0.373434126
7695485 -0.772291421 0.373708039
7710385 -0.771834433 0.374182909
7725185 -0.771498322 0.374738574
7739985 -0.77128607 0.375245213
7754785 -0.770680427 0.375698208
7769585 -0.770552992 0.376152426
7784385 -0.77000761 0.376630932
7799285 -0.769815802 0.377059966
7814085 -0.76928389 0.377592831
7828885 -0.76895833 0.378048092
7843685 -0.768626272 0.378670126
7858485 -0.768174469 0.379115998
7873285 -0.767877221 0.379694044
7888185 -0.767614603 0.380036145
7902985 -0.767177462 0.380566716
7917785 -0.766857087 0.381167948
7932585 -0.766353666 0.381388217
7947385 -0.76616913 0.381946355
7962185 -0.765785753 0.382509201
7977085 -0.765479445 0.383151441
7991885 -0.765199363 0.383541822
8006685 -0.764692306 0.384007006
8021485 -0.764207243 0.384348154
8036285 -0.763854861 0.384847998
8051085 -0.763529539 0.385422706
8065985 -0.763092398 0.385801702
8080785 -0.7627604 0.386416614
8095585 -0.7623263 0.386895388
8110385 -0.761816442 0.387278795
8125185 -0.761614441 0.387986302
8139985 -0.761085808 0.388364583
8154885 -0.760852515 0.388669759
8169685 -0.760458052 0.3889741
8184485 -0.760086834 0.389642924
8199285 -0.759698688 0.390070319
8214085 -0.759313225 0.390399873
8228885 -0.758900284 0.391004383
8243785 -0.758570373 0.39126414
8258585 -0.758060991 0.391708731
8273385 -0.757623493 0.392296999
8288185 -0.757450342 0.392862707
8302985 -0.757018744 0.393134772
8317885 -0.756852388 0.393642127
8332685 -0.756584405 0.39424023
8347485 -0.756229281 0.394570976
8362285 -0.755931496 0.39502269
8377085 -0.755610704 0.395489156
8391885 -0.755082249 0.395936876
8406785 -0.754665911 0.396381378
8421585 -0.754551351 0.396930396
8436385 -0.754119873 0.39739722
8451185 -0.75363475 0.397790253
8465985 -0.753455817 0.398133158
8480785 -0.753078997 0.398697137
8495685 -0.752550661 0.399135589
8510485 -0.751991391 0.39955452
8525285 -0.751756608 0.400165051
8540085 -0.75120604 0.400534003
8554885 -0.750760316 0.40104863
8569685 -0.750496327 0.401464879
8584585 -0.750294327 0.401952862
8599385 -0.749845445 0.40248543
8614185 -0.749529302 0.402862042
8628985 -0.749166011 0.403287231
8643785 -0.748799502 0.403783351
8658585 -0.748448014 0.404212534
8673485 -0.747900068 0.404806911
8688285 -0.747826397 0.405324727
8703085 -0.747288346 0.405803859
8717885 -0.746961176 0.406195104
8732685 -0.746511161 0.406618684
8747485 -0.74623388 0.407185912
8762385 -0.74585694 0.407676011
8777185 -0.745581984 0.408082991
8791985 -0.745171725 0.408497422
8806785 -0.744857847 0.408948302
8821585 -0.744471192 0.409274965
8836385 -0.743998587 0.409870684
8851285 -0.743742525 0.410357594
8866085 -0.743374645 0.410658031
8880885 -0.742881417 0.411164462
8895685 -0.742458283 0.411610424
8910485 -0.74214679 0.412108361
8925285 -0.741924822 0.412656992
8940185 -0.741501986 0.413071691
8954985 -0.741148471 0.413457691
8969785 -0.740657687 0.41387552
8984585 -0.740472495 0.414258301
8999385 -0.740068137 0.414876282
9014285 -0.739673495 0.415247619
9029102 -0.739503026 0.415535598
9043902 -0.739060401 0.416051059
9058702 -0.738655328 0.416530698
9073502 -0.738408625 0.416995406
9088302 -0.737937331 0.41744709
