# HZ S RI R 50
50000 -0.993137657 0.013058057
64800 -0.991696536 0.016290737
79600 -0.989641726 0.019082456
94400 -0.988553583 0.021239116
109200 -0.987244367 0.022940497
124000 -0.986078441 0.02459005
138900 -0.984832584 0.026060307
153700 -0.984101891 0.027097528
168500 -0.982822239 0.028410153
183300 -0.98210138 0.029555147
198100 -0.981169879 0.030365906
212900 -0.980186164 0.031914405
227800 -0.979349911 0.033248588
242600 -0.978621602 0.034620761
257400 -0.977675795 0.035940479
272200 -0.976963996 0.037202201
287000 -0.976275742 0.038447756
301800 -0.975385844 0.039848424
316700 -0.974798023 0.041042692
331500 -0.974129378 0.042193353
346300 -0.973473489 0.043310329
361100 -0.97264105 0.044416882
375900 -0.972063541 0.045685946
390700 -0.971229732 0.046732142
405600 -0.970668375 0.04787597
420400 -0.970080435 0.049075171
435200 -0.96937555 0.050125032
450000 -0.96859759 0.051045835
464800 -0.967829167 0.052316855
479600 -0.967447757 0.053239256
494500 -0.96680814 0.054376337
509300 -0.966219544 0.05550272
524100 -0.965586364 0.056388124
538900 -0.965079367 0.057570219
553700 -0.964624702 0.058872632
568500 -0.964022159 0.059677213
583400 -0.963503301 0.060591246
598200 -0.96298778 0.061813861
613000 -0.962376296 0.062925815
627800 -0.961816489 0.063726097
642600 -0.961356222 0.064913995
657400 -0.960750222 0.065772645
672300 -0.960193395 0.066915668
687100 -0.959643006 0.067792959
701900 -0.959059417 0.068856582
716700 -0.958535194 0.069798082
731500 -0.958245217 0.070678561
746300 -0.957715809 0.071649856
761200 -0.957129538 0.072723269
776000 -0.956680595 0.073488809
790800 -0.956200063 0.074585169
805600 -0.955591738 0.075440742
820400 -0.955049514 0.076291248
835300 -0.954792916 0.077321603
850100 -0.954350054 0.078370586
864900 -0.953832626 0.07924588
879700 -0.953292608 0.079876266
894500 -0.952872157 0.080810368
909300 -0.952317893 0.081825502
924200 -0.951784014 0.082774862
939000 -0.951394975 0.083422392
953800 -0.950989782 0.084327645
968600 -0.950451076 0.085329934
983400 -0.949924767 0.086091376
998200 -0.949533641 0.087061092
1013100 -0.94911158 0.088123373
1027900 -0.948532342 0.088910333
1042700 -0.948091447 0.089744105
1057500 -0.947690844 0.09068042
1072300 -0.947334885 0.091531097
1087100 -0.946731388 0.092539757
1102000 -0.946464359 0.093095503
1116800 -0.945975542 0.094107225
1131600 -0.945296943 0.095090046
1146400 -0.94509226 0.095911033
1161200 -0.94468224 0.096728868
1176000 -0.944013416 0.097685895
1190900 -0.943656563 0.098476409
1205700 -0.94332534 0.099243372
1220500 -0.942883074 0.100207395
1235300 -0.942263603 0.101120106
1250100 -0.941809117 0.101892523
1264900 -0.941516935 0.10283447
1279800 -0.941011667 0.103648409
1294600 -0.940493583 0.104245848
1309400 -0.940215945 0.105082824
1324200 -0.939855396 0.105839498
1339000 -0.939267039 0.106810629
1353800 -0.938762962 0.107597619
1368700 -0.938473641 0.108391083
1383500 -0.938219726 0.109304808
1398300 -0.937624454 0.110113896
1413100 -0.937204062 0.110873796
1427900 -0.936708569 0.111699089
1442700 -0.936497926 0.112447276
1457600 -0.935937464 0.1134689
1472400 -0.93556261 0.11414799
1487200 -0.935229718 0.114925831
1502000 -0.934780895 0.115829177
1516800 -0.934358 0.11646413
1531700 -0.9341017 0.117347672
1546517 -0.933579444 0.118243791
1561317 -0.933032095 0.119042001
1576117 -0.932585597 0.119792193
1590917 -0.93230158 0.120695292
1605717 -0.931899726 0.121416084
1620517 -0.931510567 0.122134953
1635417 -0.931065082 0.123114354
1650217 -0.930754899 0.123657025
1665017 -0.930228829 0.124565325
1679817 -0.92972064 0.125376179
1694617 -0.929385662 0.126172363
1709417 -0.928910017 0.126903876
1724317 -0.928659617 0.127738937
1739117 -0.928178131 0.128406584
1753917 -0.927890658 0.1292198
1768717 -0.927490472 0.129860922
1783517 -0.927119433 0.130597203
1798317 -0.926726698 0.131314069
1813217 -0.926322579 0.132059037
1828017 -0.925877451 0.132780715
1842817 -0.925544679 0.133732676
1857617 -0.925109148 0.134265869
1872417 -0.92476958 0.135200947
1887217 -0.924185991 0.135928601
1902117 -0.923894882 0.136774212
1916917 -0.923475146 0.137381866
1931717 -0.923123598 0.13824144
1946517 -0.922569692 0.138916611
1961317 -0.922252118 0.139499366
1976117 -0.922010898 0.140235841
1991017 -0.921548008 0.141017705
2005817 -0.921087443 0.141743019
2020617 -0.920618414 0.142633989
2035417 -0.920397162 0.143243372
2050217 -0.919838011 0.143922969
2065017 -0.919650197 0.14481841
2079917 -0.919199585 0.145494878
2094717 -0.918843328 0.146302133
2109517 -0.918363988 0.147101342
2124317 -0.918014287 0.14782074
2139117 -0.91768825 0.148526012
2153917 -0.917352259 0.149209812
2168817 -0.917000055 0.149812668
2183617 -0.9166345 0.15036875
2198417 -0.916300475 0.151170387
2213217 -0.915980637 0.151960745
2228017 -0.915485918 0.152688279
2242817 -0.9151932 0.153375446
2257717 -0.914673686 0.154100239
2272517 -0.914188623 0.154981359
2287317 -0.913966894 0.155712082
2302117 -0.91340202 0.156603634
2316917 -0.913033545 0.157015115
2331817 -0.912723779 0.157993897
2346617 -0.91220355 0.158497825
2361417 -0.911672353 0.159293174
2376217 -0.911362051 0.159896999
2391017 -0.910822987 0.160693019
2405817 -0.910512089 0.161146759
2420717 -0.910090506 0.161843508
2435517 -0.909789264 0.162572383
2450317 -0.909373819 0.163312107
2465117 -0.909083306 0.16408649
2479917 -0.908819973 0.164653837
2494717 -0.908433675 0.165322676
2509617 -0.908059775 0.165932327
2524417 -0.907702147 0.166686043
2539217 -0.907492756 0.167401432
2554017 -0.906996011 0.168106019
2568817 -0.906567633 0.168776258
2583617 -0.906292438 0.16951324
2598517 -0.905978322 0.170203104
2613317 -0.905542135 0.170909449
2628117 -0.905161976 0.171572998
2642917 -0.904758989 0.172147497
2657717 -0.904530048 0.173009946
2672517 -0.903966963 0.173593938
2687417 -0.90371412 0.174339428
2702217 -0.903207719 0.175138488
2717017 -0.902843058 0.175805568
2731817 -0.90260303 0.17642048
2746617 -0.902135848 0.177101895
2761417 -0.901857018 0.177786082
2776317 -0.901543796 0.178484961
2791117 -0.901135742 0.179058998
2805917 -0.900795817 0.179818063
2820717 -0.900410711 0.180539652
2835517 -0.900132894 0.181143686
2850317 -0.89981985 0.181721001
2865217 -0.899456024 0.182394832
2880017 -0.899111449 0.183229684
2894817 -0.89864397 0.183789253
2909617 -0.898213922 0.184411898
2924417 -0.89797008 0.185030043
2939217 -0.897416353 0.1856388
2954117 -0.897249341 0.186356693
2968917 -0.896875202 0.187110558
2983717 -0.896394371 0.187682777
2998517 -0.896049201 0.18834418
3013317 -0.895661532 0.188981011
3028217 -0.895417988 0.189763858
3043034 -0.894935071 0.190250962
3057834 -0.894600272 0.1909478
3072634 -0.894244492 0.191685631
3087434 -0.893700838 0.192266806
3102234 -0.893461883 0.192858591
3117034 -0.892986953 0.193720638
3131934 -0.892703175 0.194210559
3146734 -0.892219543 0.194715455
3161534 -0.891932368 0.195429816
3176334 -0.891623497 0.19589585
3191134 -0.891159892 0.196595892
3205934 -0.890803992 0.197370558
3220834 -0.890278577 0.198010295
3235634 -0.890058457 0.198573663
3250434 -0.889757096 0.199308305
3265234 -0.889438033 0.199734345
3280034 -0.888954579 0.200496748
3294834 -0.888644039 0.201179504
3309734 -0.888300001 0.201803386
3324534 -0.887875556 0.202547848
3339334 -0.887491822 0.203091859
3354134 -0.887288928 0.203656271
3368934 -0.886900544 0.204275593
3383734 -0.886502325 0.205000191
3398634 -0.88611257 0.205561339
3413434 -0.885722398 0.206332296
3428234 -0.885280311 0.206820636
3443034 -0.885091841 0.207520812
3457834 -0.884658932 0.208122089
3472634 -0.884407401 0.208758965
3487534 -0.883949041 0.209476515
3502334 -0.883756041 0.20992814
3517134 -0.883300125 0.21055445
3531934 -0.883062124 0.211234167
3546734 -0.882474124 0.211724951
3561534 -0.882327377 0.212582796
3576434 -0.881686687 0.213221043
3591234 -0.881464719 0.213615119
3606034 -0.881109654 0.214312419
3620834 -0.880684912 0.215008974
3635634 -0.880286037 0.215526491
3650434 -0.879934132 0.216133505
3665334 -0.87972486 0.216853052
3680134 -0.879386603 0.217274531
3694934 -0.878710329 0.217863991
3709734 -0.87852776 0.218533828
3724534 -0.878350019 0.219180881
3739334 -0.877895832 0.219714358
3754234 -0.87760359 0.220441386
3769034 -0.87726885 0.221133142
3783834 -0.876679062 0.221581369
3798634 -0.876464605 0.222119748
3813434 -0.876084864 0.222723349
3828334 -0.875818014 0.223588302
3843134 -0.87538737 0.224109843
3857934 -0.875041007 0.224824592
3872734 -0.874631822 0.225484415
3887534 -0.874518454 0.226019665
3902334 -0.873951435 0.226609632
3917234 -0.873793244 0.227254673
3932034 -0.873294651 0.227760687
3946834 -0.873118996 0.228349983
3961634 -0.87270075 0.229007765
3976434 -0.872274577 0.229623615
3991234 -0.871769726 0.23014307
4006134 -0.871361196 0.230756759
4020934 -0.870946824 0.23123987
4035734 -0.870552659 0.231901317
4050534 -0.870027184 0.232293814
4065334 -0.869704902 0.232932209
4080134 -0.869332253 0.23352316
4095034 -0.868944764 0.234044983
4109834 -0.868628919 0.234730616
4124634 -0.868363678 0.23543857
4139434 -0.868160724 0.235904559
4154234 -0.867807447 0.236713021
4169034 -0.86753863 0.237250328
4183934 -0.867062449 0.237799018
4198734 -0.8667019 0.238397076
4213534 -0.866458714 0.239068552
4228334 -0.866183698 0.239716172
4243134 -0.865846693 0.240188553
4257934 -0.865455269 0.240722581
4272834 -0.865037858 0.241347849
4287634 -0.864877939 0.241777911
4302434 -0.864560127 0.2424829
4317234 -0.864148914 0.242856249
4332034 -0.863762855 0.243710562
4346834 -0.863517999 0.244094818
4361734 -0.863156914 0.244756937
4376534 -0.862759292 0.245174452
4391334 -0.862342953 0.245926722
4406134 -0.862161457 0.246472358
4420934 -0.861684799 0.247067466
4435734 -0.861293375 0.247794106
4450634 -0.860888242 0.24820286
4465434 -0.860601127 0.248795524
4480234 -0.86023128 0.249516546
4495034 -0.859648227 0.250095397
4509834 -0.859352469 0.250725597
4524734 -0.858975529 0.251274347
4539551 -0.85858047 0.251852363
4554351 -0.858362436 0.252598077
4569151 -0.857981503 0.253088653
4583951 -0.857647538 0.253564298
4598751 -0.857247531 0.25427553
4613551 -0.857209682 0.255014985
4628451 -0.856823503 0.255405128
4643251 -0.856428623 0.256114453
4658051 -0.856091499 0.256632149
4672851 -0.855688154 0.257316529
4687651 -0.855313837 0.257756799
4702451 -0.854875624 0.258380562
4717351 -0.854601204 0.258872687
4732151 -0.85424602 0.259336531
4746951 -0.85392487 0.259948223
4761751 -0.853524088 0.260456353
4776551 -0.853151977 0.261004477
4791351 -0.852905035 0.261628329
4806251 -0.852348864 0.261985093
4821051 -0.852094709 0.262444198
4835851 -0.8517071 0.263045519
4850651 -0.851324141 0.263559877
4865451 -0.85089612 0.264279574
4880251 -0.850509047 0.264869481
4895151 -0.850144922 0.265508592
4909951 -0.850024282 0.266026079
4924751 -0.849556624 0.266506493
4939551 -0.849199533 0.267122417
4954351 -0.849010884 0.267675518
4969151 -0.848681151 0.268210679
4984051 -0.848305165 0.268738687
4998851 -0.848038256 0.269298791
5013651 -0.847533702 0.26986134
5028451 -0.84712857 0.270448952
5043251 -0.84680289 0.271018952
5058051 -0.846544444 0.271536976
5072951 -0.846028625 0.271913081
5087751 -0.845740199 0.272529304
5102551 -0.84536302 0.273157954
5117351 -0.845039308 0.273747891
5132151 -0.844557523 0.274151325
5146951 -0.844396948 0.274832874
5161851 -0.843914806 0.275254845
5176651 -0.843497633 0.275824934
5191451 -0.843243181 0.276381641
5206251 -0.84285438 0.276907384
5221051 -0.842365682 0.277525305
5235851 -0.841979146 0.277937084
5250751 -0.841623485 0.278499722
5265551 -0.841130673 0.27898845
5280351 -0.840948104 0.279652655
5295151 -0.840470969 0.280151814
5309951 -0.840216875 0.280857592
5324851 -0.839854001 0.28144589
5339651 -0.839726924 0.282107055
5354451 -0.839189529 0.282573193
5369251 -0.838996708 0.283065438
5384051 -0.838760495 0.283511966
5398851 -0.838473916 0.284110844
5413751 -0.838009595 0.284588247
5428551 -0.837928354 0.285044968
5443351 -0.837293684 0.285608112
5458151 -0.837131142 0.286223858
5472951 -0.83660233 0.286591351
5487751 -0.836320936 0.287112116
5502651 -0.836010873 0.287760436
5517451 -0.83558613 0.288149565
5532251 -0.835193634 0.288920283
5547051 -0.835011065 0.289367228
5561851 -0.834503591 0.289869695
5576651 -0.834137201 0.290352314
5591551 -0.83373773 0.291021287
5606351 -0.833298921 0.291416138
5621151 -0.83319348 0.29198274
5635951 -0.832802712 0.292499572
5650751 -0.832425534 0.292993187
5665551 -0.831889152 0.293507695
5680451 -0.831755995 0.294293105
5695251 -0.831333398 0.294721454
5710051 -0.830994367 0.295240432
5724851 -0.830810368 0.295826345
5739651 -0.83037585 0.296403199
5754451 -0.82993108 0.296802222
5769351 -0.829749405 0.297332644
5784151 -0.829406738 0.297915488
5798951 -0.828952908 0.298335522
5813751 -0.828781425 0.29893136
5828551 -0.828327894 0.299416691
5843351 -0.827893257 0.299886733
5858251 -0.827697038 0.300357878
5873051 -0.827364325 0.300716787
5887851 -0.827076673 0.301312565
5902651 -0.826618075 0.301866561
5917451 -0.826433181 0.302250027
5932251 -0.825861334 0.302859812
5947151 -0.82565397 0.303497791
5961951 -0.825166225 0.3039366
5976751 -0.824882566 0.304456979
5991551 -0.824534058 0.305024087
6006351 -0.824322462 0.305510073
6021251 -0.823719978 0.30606094
6036068 -0.823428332 0.306434124
6050868 -0.822999238 0.307097882
6065668 -0.822651922 0.307774841
6080468 -0.822265505 0.308268427
6095268 -0.821942269 0.308642089
6110068 -0.82162255 0.309267342
6124968 -0.821239769 0.309784322
6139768 -0.82088536 0.310278832
6154568 -0.820486843 0.310680806
6169368 -0.820156872 0.311345756
6184168 -0.819741964 0.311680555
6198968 -0.819549977 0.31217882
6213868 -0.818939566 0.31274566
6228668 -0.818625986 0.313413769
6243468 -0.818400621 0.313872575
6258268 -0.817988336 0.314383387
6273068 -0.817512989 0.314706265
6287868 -0.817472636 0.315216839
6302768 -0.817200481 0.315665841
6317568 -0.816724538 0.31627348
6332368 -0.816254019 0.316712349
6347168 -0.8160097 0.317334294
6361968 -0.815459251 0.317799597
6376768 -0.815115809 0.318288773
6391668 -0.81483829 0.318721443
6406468 -0.814441442 0.319406241
6421268 -0.81412816 0.319779068
6436068 -0.813707113 0.320254325
6450868 -0.813484609 0.320802122
6465668 -0.813122272 0.321324497
6480568 -0.812829375 0.321808248
6495368 -0.812631547 0.322026938
6510168 -0.812215626 0.322584331
6524968 -0.81213653 0.322830706
6539768 -0.811805665 0.323394447
6554568 -0.81143409 0.323769927
6569468 -0.81133604 0.324389815
6584268 -0.810887634 0.324814081
6599068 -0.810476839 0.325520247
6613868 -0.809869229 0.32598564
6628668 -0.809300839 0.326755613
6643468 -0.809268057 0.327148139
6658368 -0.808869719 0.327841997
6673168 -0.808674097 0.327986627
6687968 -0.8084746 0.328473001
6702768 -0.808126688 0.329082638
6717568 -0.807731926 0.329662501
6732368 -0.80739516 0.330138802
6747268 -0.807042062 0.330752521
6762068 -0.806644082 0.331181466
6776868 -0.806185901 0.331634759
6791668 -0.805943727 0.3320297
6806468 -0.805453717 0.332669943
6821368 -0.805007934 0.333289265
6836168 -0.804735541 0.33364427
6850968 -0.804488658 0.334057599
6865768 -0.803883612 0.334408789
6880568 -0.803673386 0.334958553
6895368 -0.803095579 0.33529511
6910268 -0.802935898 0.335757195
6925068 -0.802702844 0.336272984
6939868 -0.802359521 0.336761415
6954668 -0.801889479 0.337338
6969468 -0.801524937 0.337977617
6984268 -0.80102998 0.338356465
6999168 -0.800578951 0.33897978
7013968 -0.800378143 0.339513957
7028768 -0.799922049 0.340017408
7043568 -0.799568295 0.340385973
7058368 -0.79927504 0.341057062
7073168 -0.7989555 0.341625183
7088068 -0.798610389 0.341968744
7102868 -0.79810971 0.34258306
7117668 -0.7977494 0.343115001
7132468 -0.79750961 0.343559026
7147268 -0.797172129 0.344063639
7162068 -0.796758472 0.344515621
7176968 -0.796386837 0.345066219
7191768 -0.79594928 0.345469832
7206568 -0.795648455 0.345877289
7221368 -0.7953583 0.346403509
7236168 -0.795052886 0.346843481
7250968 -0.794786453 0.347302526
7265868 -0.794582486 0.347824692
7280668 -0.794318079 0.348323702
7295468 -0.793755173 0.348669797
7310268 -0.793361485 0.349318236
7325068 -0.793138444 0.349781841
7339868 -0.792677581 0.350172698
7354768 -0.792437911 0.350524544
7369568 -0.792228221 0.351097047
7384368 -0.791835904 0.351624637
7399168 -0.791557908 0.352109372
7413968 -0.79126358 0.352513283
7428768 -0.790835261 0.352962315
7443668 -0.790392637 0.353595793
7458468 -0.790123879 0.354148983
7473268 -0.789732992 0.354590684
7488068 -0.789273023 0.354945778
7502868 -0.7888695 0.355541169
7517768 -0.788535594 0.355717241
7532585 -0.788338482 0.356378287
7547385 -0.787837445 0.356771349
7562185 -0.787608027 0.357192128
7576985 -0.787157475 0.357722908
7591785 -0.786928534 0.358168691
7606585 -0.786691248 0.35857433
7621485 -0.786394298 0.358969867
7636285 -0.785953164 0.359435081
7651085 -0.785675466 0.359931915
7665885 -0.785350143 0.360439181
7680685 -0.785026073 0.361045122
7695485 -0.78456211 0.361456602
7710385 -0.784377217 0.36189419
7725185 -0.783858954 0.362343788
7739985 -0.783501923 0.362869709
7754785 -0.783154368 0.363277226
7769585 -0.78284043 0.363481014
7784385 -0.782336235 0.364103734
7799285 -0.782200694 0.364610373
7814085 -0.781492829 0.365123063
7828885 -0.781477808 0.365545243
7843685 -0.781159937 0.366010338
7858485 -0.780784249 0.366560518
7873285 -0.780448079 0.366938054
7888185 -0.780167222 0.367446959
7902985 -0.779766023 0.367981374
7917785 -0.779462754 0.368364155
7932585 -0.779100894 0.36885479
7947385 -0.778759896 0.369229674
7962185 -0.778395116 0.369801521
7977085 -0.778038561 0.370215713
7991885 -0.777644932 0.370894044
8006685 -0.777288496 0.371234148
8021485 -0.777098536 0.371508151
8036285 -0.776603877 0.372048348
8051085 -0.776129901 0.372510462
8065985 -0.775890469 0.372870832
8080785 -0.775589466 0.373409718
8095585 -0.775000393 0.373894989
8110385 -0.774718284 0.374248206
8125185 -0.774335145 0.374590992
8139985 -0.774014055 0.375282883
8154885 -0.773621916 0.375594139
8169685 -0.773320078 0.376098126
8184485 -0.773064672 0.376394629
8199285 -0.772591352 0.377081692
8214085 -0.772232651 0.37737587
8228885 -0.771902859 0.377834588
8243785 -0.771608471 0.378300458
8258585 -0.771257221 0.378722876
8273385 -0.770742356 0.378995329
8288185 -0.770482778 0.379559665
8302985 -0.77009648 0.380051314
8317885 -0.769865155 0.380560636
8332685 -0.769742906 0.381060987
8347485 -0.769307196 0.381418257
8362285 -0.769034028 0.382028341
8377085 -0.768610656 0.382320076
8391885 -0.768350124 0.38284102
8406785 -0.768082916 0.383293449
8421585 -0.767734229 0.383554428
8436385 -0.767343819 0.38434261
8451185 -0.766971766 0.384592354
8465985 -0.766419887 0.384898632
8480785 -0.766186118 0.385429501
8495685 -0.765705645 0.385919481
8510485 -0.76545155 0.386362761
8525285 -0.765047192 0.386854201
8540085 -0.764669358 0.387211352
8554885 -0.764263808 0.387639313
8569685 -0.764183223 0.388233244
8584585 -0.763658046 0.388559609
8599385 -0.763218462 0.389114052
8614185 -0.762912273 0.389531135
8628985 -0.762582361 0.389895737
8643785 -0.762177824 0.390441656
8658585 -0.761917114 0.390895694
8673485 -0.761517286 0.391445666
8688285 -0.761094808 0.391865313
8703085 -0.760665655 0.392357051
8717885 -0.760490715 0.392700642
8732685 -0.760018229 0.393158853
8747485 -0.759606719 0.393593788
8762385 -0.759363293 0.393969237
8777185 -0.758951604 0.394433975
8791985 -0.758702516 0.395018368
8806785 -0.758341789 0.395266324
8821585 -0.758053839 0.395677626
8836385 -0.757616519 0.396242976
8851285 -0.757260322 0.396682858
8866085 -0.756969749 0.397126704
8880885 -0.756512641 0.397598356
8895685 -0.756140589 0.39799124
8910485 -0.75589925 0.398191958
8925285 -0.755572378 0.398793399
8940185 -0.755231022 0.399191975
8954985 -0.754781246 0.399620592
8969785 -0.754580557 0.399926066
8984585 -0.754115581 0.40048772
8999385 -0.754028975 0.400996983
9014285 -0.753576993 0.401424914
9029102 -0.753440141 0.401686668
9043902 -0.752849996 0.402184724
9058702 -0.752724051 0.402682453
9073502 -0.752220928 0.403053879
9088302 -0.751945197 0.403600037
9103102 -0.751595258 0.403851717
