# HZ S RI R 50
50000 -0.991209685 0.013902807
59800 -0.990262269 0.016429087
69700 -0.989565372 0.018174827
79600 -0.987956345 0.020081568
89500 -0.987027168 0.021321598
99400 -0.986234307 0.022754384
109300 -0.985279798 0.023726485
119200 -0.984658718 0.024854291
129100 -0.983685672 0.025952572
139000 -0.98308593 0.026722097
148900 -0.981939375 0.027596294
158800 -0.981215655 0.028258806
168700 -0.980524897 0.029315598
178600 -0.980111896 0.029902279
188500 -0.979420781 0.030676197
198400 -0.978751182 0.031290113
208300 -0.978247523 0.032082524
218200 -0.977549076 0.032963506
228100 -0.97686702 0.033806145
238000 -0.976226508 0.034920707
247900 -0.975666224 0.035699635
257800 -0.975291073 0.036624982
267700 -0.974662363 0.037400618
277600 -0.974419891 0.038224179
287500 -0.973626196 0.038971986
297400 -0.973187446 0.039636101
307300 -0.972583949 0.040703527
317200 -0.972165405 0.041237726
327100 -0.971836984 0.042291823
337000 -0.97119975 0.042910374
346900 -0.970978021 0.043585527
356800 -0.970280468 0.044344652
366700 -0.969943165 0.044893138
376600 -0.969332814 0.04606432
386400 -0.968861103 0.046644557
396300 -0.968479633 0.047428797
406200 -0.96797043 0.047992672
416100 -0.967664837 0.048932615
426000 -0.967167198 0.049570586
435900 -0.966835975 0.050016317
445800 -0.96610558 0.050902552
455700 -0.96583718 0.051785476
465600 -0.965361416 0.052379649
475500 -0.965071499 0.053163886
485400 -0.964733302 0.053683958
495300 -0.964201986 0.054391097
505200 -0.963869035 0.055076666
515100 -0.963469803 0.055649165
525000 -0.962948203 0.056357603
534900 -0.962730467 0.056954894
544800 -0.962257385 0.057878375
554700 -0.961835801 0.058589003
564600 -0.961710393 0.059389434
574500 -0.961168706 0.059893131
584400 -0.960966289 0.060493566
594300 -0.96058005 0.06117456
604200 -0.96006006 0.061850357
614100 -0.959636032 0.062765873
624000 -0.959304928 0.063237346
633900 -0.959050834 0.06399957
643800 -0.958775222 0.064594037
653700 -0.958475053 0.065226189
663600 -0.958075642 0.065789513
673500 -0.957695066 0.066571682
683400 -0.957471847 0.067279733
693300 -0.957090497 0.067846879
703200 -0.956882059 0.068584553
713000 -0.956348598 0.068975001
722900 -0.956297039 0.069497466
732800 -0.955610096 0.070214703
742700 -0.955359935 0.070838518
752600 -0.95520395 0.071646869
762500 -0.954729616 0.072154402
772400 -0.954608142 0.072964154
782300 -0.954084753 0.073487512
792200 -0.953840494 0.073953717
802100 -0.953441202 0.074762202
812000 -0.95317161 0.07506214
821900 -0.952857732 0.076046474
831800 -0.952521562 0.076598465
841700 -0.952479958 0.076940417
851600 -0.95200169 0.07768315
861500 -0.95168811 0.078073307
871400 -0.951304674 0.078952439
881300 -0.950991868 0.079317294
891200 -0.950812876 0.080221526
901100 -0.950598657 0.080631248
911000 -0.950303256 0.081090167
920900 -0.949956536 0.081599347
930800 -0.949526071 0.082205779
940700 -0.949378609 0.083089843
950600 -0.949230134 0.083626911
960500 -0.948916256 0.084027752
970400 -0.948448777 0.084802657
980300 -0.948155462 0.085110358
990200 -0.947699844 0.085860244
1000100 -0.947503983 0.086511455
1010000 -0.947301745 0.087165638
1019900 -0.947199225 0.087676309
1029800 -0.946822285 0.088291689
1039700 -0.946503698 0.088812962
1049597 -0.946240901 0.089236862
1059397 -0.94592446 0.089977338
1069297 -0.945927858 0.090568281
1079197 -0.945339143 0.090946167
1089097 -0.945196866 0.09171313
1098997 -0.945091962 0.092310801
1108897 -0.944450139 0.092858597
1118797 -0.944223344 0.093559533
1128697 -0.944135427 0.094130598
1138597 -0.943622231 0.094558179
1148497 -0.943209707 0.095073118
1158397 -0.943255305 0.095826588
1168297 -0.942848265 0.096219256
1178197 -0.94242531 0.096831016
1188097 -0.942382574 0.097582675
1197997 -0.941918373 0.098028771
1207897 -0.941773414 0.098606996
1217797 -0.941515862 0.099454611
1227697 -0.941212356 0.099702738
1237597 -0.940874576 0.100164704
1247497 -0.940645277 0.100914545
1257397 -0.940528571 0.101542651
1267297 -0.940175473 0.101786784
1277197 -0.939524054 0.10232678
1287097 -0.939541697 0.103064402
1296997 -0.939275562 0.103722825
1306897 -0.939188003 0.104131177
1316797 -0.938680589 0.104658782
1326697 -0.938585638 0.105419412
1336597 -0.938620448 0.105888895
1346497 -0.937899291 0.106438145
1356397 -0.937685906 0.106853574
1366297 -0.937709629 0.107572205
1376197 -0.937140524 0.108129553
1385997 -0.936859786 0.108538523
1395897 -0.936793565 0.109182946
1405797 -0.936401188 0.109772443
1415697 -0.936197996 0.110343538
1425597 -0.936160922 0.110795445
1435497 -0.935688316 0.111263573
1445397 -0.935440301 0.111890971
1455297 -0.935440301 0.112422406
1465197 -0.93503791 0.112910881
1475097 -0.934721291 0.113617628
1484997 -0.934719741 0.114076569
1494897 -0.934392213 0.114651814
1504797 -0.933985531 0.115179583
1514697 -0.93403989 0.115667171
1524597 -0.933452606 0.116325117
1534497 -0.933238387 0.116870902
1544397 -0.933356702 0.117266431
1554297 -0.932712256 0.117963999
1564197 -0.932599544 0.118518784
1574097 -0.932366728 0.11868222
1583997 -0.931919157 0.119538709
1593897 -0.93176192 0.120058894
1603797 -0.931662023 0.120729185
1613697 -0.931198656 0.121159277
1623597 -0.93090856 0.121570751
1633497 -0.930962264 0.12236566
1643397 -0.930345773 0.122637659
1653297 -0.930263817 0.123285174
1663197 -0.930178642 0.123722113
1673097 -0.92966175 0.124244868
1682997 -0.929430782 0.124790452
1692897 -0.929307579 0.125304937
1702797 -0.928940236 0.125696852
1712597 -0.92872864 0.126419499
1722497 -0.928714215 0.126632004
1732397 -0.92813301 0.127490192
1742297 -0.928187668 0.127999529
1752197 -0.927862226 0.128468573
1762097 -0.92741698 0.129162251
1771997 -0.927248477 0.129574418
1781897 -0.92723906 0.129858925
1791797 -0.92688018 0.13057357
1801697 -0.926561713 0.131115972
1811597 -0.926438033 0.131288602
1821497 -0.926100254 0.132242411
1831397 -0.92592132 0.132562816
1841297 -0.92561829 0.132915288
1851197 -0.925376832 0.13363628
1861097 -0.925296187 0.134086564
1870997 -0.92468363 0.134377583
1880897 -0.924702703 0.135225534
1890797 -0.924482345 0.135467723
1900697 -0.924173772 0.136008054
1910597 -0.924015223 0.136881753
1920497 -0.923755824 0.137117817
1930397 -0.923303425 0.137617528
1940297 -0.923359334 0.138323396
1950197 -0.922983467 0.138517826
1960097 -0.92258346 0.139084279
1969997 -0.922629535 0.139731779
1979897 -0.922424495 0.140327423
1989797 -0.921881437 0.140743121
1999697 -0.921851456 0.141507595
2009597 -0.921554088 0.141660273
2019497 -0.921156764 0.142172619
2029397 -0.921200335 0.142929568
2039297 -0.920874655 0.14324367
2049194 -0.92090547 0.14355643
2058994 -0.920126795 0.144343793
2068894 -0.920367002 0.144696637
2078794 -0.919837594 0.145210921
2088694 -0.91963613 0.145763158
2098594 -0.919480443 0.146501675
2108494 -0.919195115 0.146789699
2118394 -0.918779611 0.147220745
2128294 -0.918751895 0.148014172
2138194 -0.918381154 0.14820601
2148094 -0.918247163 0.148808076
2157994 -0.918138861 0.14926882
2167894 -0.917867481 0.14966391
2177794 -0.917511582 0.150336861
2187694 -0.91765201 0.150943636
2197594 -0.917290985 0.151260972
2207494 -0.916895806 0.151664167
2217394 -0.916880071 0.152297005
2227294 -0.916439652 0.152861565
2237194 -0.916143238 0.153227344
2247094 -0.915925562 0.153647571
2256994 -0.915621459 0.154370307
2266894 -0.915483295 0.155056074
2276794 -0.915189445 0.155289217
2286694 -0.914895653 0.15590693
2296594 -0.914771795 0.156387537
2306494 -0.91453433 0.156853005
2316394 -0.91404128 0.157470464
2326294 -0.913990199 0.15778464
2336194 -0.913733124 0.158170178
2346094 -0.913498938 0.158892437
2355994 -0.913153111 0.159233629
2365894 -0.913094282 0.159729167
2375794 -0.912564396 0.160115197
2385594 -0.912486791 0.160644695
2395494 -0.912362694 0.160901457
2405394 -0.911906063 0.161643564
2415294 -0.911771595 0.162098333
2425194 -0.911714255 0.162200927
2435094 -0.91129744 0.163096845
2444994 -0.911209821 0.163457959
2454894 -0.910954833 0.163765385
2464794 -0.910594522 0.164319813
2474694 -0.910442233 0.164802744
2484594 -0.910425961 0.165222689
2494494 -0.909874677 0.165977746
2504394 -0.909713089 0.166491925
2514294 -0.909605324 0.166849836
2524194 -0.909282565 0.167435392
2534094 -0.908995926 0.167733192
2543994 -0.909045159 0.168440297
2553894 -0.908643424 0.168780624
2563794 -0.908370733 0.16946341
2573694 -0.908425092 0.169866144
2583594 -0.908050179 0.170257925
2593494 -0.907652318 0.170797422
2603394 -0.907739639 0.171336084
2613294 -0.907221734 0.171766981
2623194 -0.907064557 0.172219946
2633094 -0.907075345 0.172701269
2642994 -0.90673238 0.173315986
2652894 -0.906571984 0.173848927
2662794 -0.906493008 0.174080774
2672694 -0.905971229 0.174725592
2682594 -0.905901849 0.175009936
2692494 -0.905665159 0.175508141
2702394 -0.90533626 0.176125332
2712194 -0.905157268 0.17654854
2722094 -0.905261933 0.177031308
2731994 -0.904721736 0.177291914
2741894 -0.904596388 0.17791
2751794 -0.904475867 0.17837435
2761694 -0.904064714 0.178904116
2771594 -0.903935968 0.179378524
2781494 -0.903775334 0.179850026
2791394 -0.903346896 0.180311575
2801294 -0.903219163 0.180794417
2811194 -0.902993738 0.18118523
2821094 -0.902664303 0.181715309
2830994 -0.902419507 0.182032138
2840894 -0.9022246 0.182546883
2850794 -0.902115762 0.183193266
2860694 -0.901797175 0.18358305
2870594 -0.901469886 0.184013277
2880494 -0.901481389 0.184597387
2890394 -0.900971472 0.184818655
2900294 -0.900863468 0.185505181
2910194 -0.900667786 0.186077758
2920094 -0.900457501 0.186383664
2929994 -0.900055408 0.186690539
2939894 -0.900167763 0.187295526
2949794 -0.8998878 0.187634214
2959694 -0.899541199 0.188090667
2969594 -0.899334728 0.188716605
2979494 -0.899061083 0.18909873
2989394 -0.898697555 0.18957901
2999294 -0.898811459 0.190129324
3009194 -0.898310065 0.190486684
3019094 -0.898182511 0.190962433
3028994 -0.898128747 0.191451102
3038894 -0.897618889 0.191829591
3048791 -0.897421538 0.19227463
3058591 -0.897200882 0.192885383
3068491 -0.897276341 0.193178266
3078391 -0.896749973 0.193538799
3088291 -0.896537482 0.194122016
3098191 -0.89656496 0.194578111
3108091 -0.896090507 0.195073157
3117991 -0.896031737 0.195494532
3127891 -0.895972132 0.195862218
3137791 -0.895442903 0.196479901
3147691 -0.895130991 0.196834385
3157591 -0.895200014 0.197164297
3167491 -0.894539535 0.197704672
3177391 -0.894629895 0.19824095
3187291 -0.894354224 0.198457524
3197191 -0.893962144 0.199277102
3207091 -0.893868923 0.199434757
3216991 -0.893579602 0.199885189
3226891 -0.893446266 0.200657323
3236791 -0.893203496 0.201015055
3246691 -0.892862141 0.201286494
3256591 -0.892752707 0.201989442
3266491 -0.892412304 0.202267527
3276391 -0.892202258 0.202841326
3286291 -0.892210364 0.203228488
3296191 -0.891771197 0.203745841
3306091 -0.891688406 0.204197734
3315991 -0.891669988 0.204502552
3325891 -0.891139805 0.20485942
3335791 -0.890867531 0.205625995
3345691 -0.890964806 0.20595847
3355591 -0.890638053 0.206348747
3365491 -0.890333831 0.206976965
3375391 -0.890157461 0.207166239
3385191 -0.889808535 0.207714945
3395091 -0.889685869 0.208342641
3404991 -0.889475047 0.208745121
3414891 -0.88909471 0.209127813
3424791 -0.889085292 0.209568828
3434691 -0.88869971 0.209977313
3444591 -0.888544261 0.210377946
3454491 -0.888426005 0.210830688
3464391 -0.88799715 0.211292311
3474291 -0.887882113 0.211855635
3484191 -0.887697398 0.212224543
3494091 -0.88728708 0.212816119
3503991 -0.887233495 0.213147118
3513891 -0.886973202 0.213419258
3523791 -0.886743426 0.214183717
3533691 -0.886426806 0.214328706
3543591 -0.886166572 0.214961916
3553491 -0.886264026 0.21532005
3563391 -0.885776579 0.215799197
3573291 -0.885443031 0.216213479
3583191 -0.885529041 0.216659516
3593091 -0.885136961 0.216961815
3602991 -0.88468343 0.217546895
3612891 -0.884729027 0.218004375
3622791 -0.884366631 0.218347951
3632691 -0.884198546 0.218876019
3642591 -0.883981525 0.219120264
3652491 -0.883622944 0.219898357
3662391 -0.883483052 0.220113843
3672291 -0.883346974 0.220607027
3682191 -0.883066713 0.221175104
3692091 -0.882731795 0.221412792
3701991 -0.882531344 0.221773073
3711791 -0.882223427 0.222384631
3721691 -0.881981909 0.222838997
3731591 -0.882134795 0.223098531
3741491 -0.881614506 0.223697692
3751391 -0.881366789 0.224058046
3761291 -0.881357312 0.22441484
3771191 -0.880907654 0.225029334
3781091 -0.880808353 0.22527194
3790991 -0.880449891 0.225570961
3800891 -0.880389392 0.226323902
3810791 -0.880174756 0.22673887
3820691 -0.879947662 0.226944029
3830591 -0.879748582 0.227640956
3840491 -0.879426956 0.227960005
3850391 -0.879296779 0.228234931
3860291 -0.87917304 0.229011476
3870191 -0.878947198 0.229291468
3880091 -0.878577828 0.229567021
3889991 -0.878465235 0.23034434
3899891 -0.878309249 0.230620577
3909791 -0.87812817 0.231031596
3919691 -0.878001987 0.231638893
3929591 -0.877646446 0.231865808
3939491 -0.877390563 0.232494145
3949391 -0.877266883 0.232970058
3959291 -0.876805126 0.23312214
3969191 -0.876520752 0.233696162
3979091 -0.876568853 0.233985558
3988991 -0.876147389 0.23454672
3998891 -0.875802516 0.23487091
4008791 -0.875581443 0.23539108
4018691 -0.875301361 0.23589228
4028591 -0.875214636 0.235990941
4038491 -0.874867737 0.236696735
4048388 -0.874807178 0.237022623
4058188 -0.874443233 0.237289741
4068088 -0.874161779 0.238021045
4077988 -0.87393409 0.238249316
4087888 -0.873837471 0.238565415
4097788 -0.873307406 0.239106103
4107688 -0.873086333 0.239398896
4117588 -0.873070895 0.24003075
4127488 -0.872846186 0.240312561
4137388 -0.872573316 0.240693196
4147288 -0.872475504 0.241461962
4157188 -0.872222065 0.241693854
4167088 -0.871959149 0.241973727
4176988 -0.871996045 0.2426306
4186888 -0.871722042 0.24302715
4196788 -0.871419191 0.243296548
4206688 -0.871405482 0.244061961
4216588 -0.8711254 0.244421511
4226488 -0.870820462 0.244597733
4236388 -0.870801866 0.245411515
4246288 -0.870542824 0.245458424
4256188 -0.870145976 0.245934858
4266088 -0.869877874 0.246399238
4275988 -0.869839251 0.246830642
4285888 -0.869687557 0.247159272
4295788 -0.869187533 0.24758771
4305688 -0.86903268 0.247862815
4315588 -0.869071245 0.248425707
4325488 -0.868499755 0.248771473
4335388 -0.868315219 0.249198615
4345288 -0.868230998 0.249622195
4355188 -0.867912709 0.250040203
4365088 -0.867721199 0.250453531
4374988 -0.867422878 0.250748574
4384788 -0.867252707 0.251231729
4394688 -0.867227315 0.251589208
4404588 -0.8667894 0.252165019
4414488 -0.866529941 0.252549976
4424388 -0.866606831 0.252874016
4434288 -0.86598742 0.253513842
4444188 -0.865817904 0.253870636
4454088 -0.865701079 0.25416544
4463988 -0.865256309 0.25466898
4473888 -0.865199089 0.255285799
4483788 -0.865085899 0.255509793
4493688 -0.864645481 0.256115019
4503588 -0.864374995 0.25643751
4513488 -0.86441493 0.256771981
4523388 -0.863991618 0.25750792
4533288 -0.863715648 0.257654905
4543188 -0.863581776 0.258168846
4553088 -0.863224864 0.258643537
4562988 -0.863038897 0.258975982
4572888 -0.862861335 0.259461343
4582788 -0.862682044 0.259802401
4592688 -0.862481772 0.260302782
4602588 -0.862477123 0.260660558
4612488 -0.862012088 0.261143803
4622388 -0.861695587 0.261470794
4632288 -0.861827373 0.262084573
4642188 -0.861445724 0.262362182
4652088 -0.861195504 0.2626293
4661988 -0.861209273 0.263362646
4671888 -0.860917091 0.263666391
4681788 -0.860613346 0.264043092
4691688 -0.860568761 0.264682441
4701588 -0.860295951 0.264972478
4711388 -0.859827995 0.265099823
4721288 -0.859764397 0.265867561
4731188 -0.859554946 0.265940517
4741088 -0.859159111 0.266284227
4750988 -0.859108626 0.267036527
4760888 -0.858757257 0.267330706
4770788 -0.858362436 0.267564266
4780688 -0.858293592 0.268072843
4790588 -0.857979595 0.268438607
4800488 -0.857904136 0.268669992
4810388 -0.857434093 0.269265204
4820288 -0.857313215 0.269713968
4830188 -0.857344031 0.269943982
4840088 -0.856847763 0.270369619
4849988 -0.856470465 0.270787179
4859888 -0.856494605 0.271350562
4869788 -0.856219112 0.271539211
4879688 -0.855997323 0.271912008
4889588 -0.855882048 0.272422611
4899488 -0.855661451 0.272770851
4909388 -0.855297446 0.273167133
4919288 -0.855239391 0.27376616
4929188 -0.854780316 0.274020403
4939088 -0.854568004 0.27455309
4948988 -0.854665637 0.27492994
4958888 -0.854120135 0.275395959
4968788 -0.853830516 0.275821357
4978688 -0.853853046 0.276254147
4988588 -0.85353893 0.276521474
4998488 -0.853399157 0.276843816
5008388 -0.853137433 0.277508109
5018288 -0.85289371 0.277742356
5028188 -0.852433919 0.277859687
5038088 -0.852268636 0.278570085
5047985 -0.8521353 0.278882563
5057785 -0.852109432 0.279173165
5067685 -0.851770639 0.279967904
5077585 -0.851508438 0.280243098
5087485 -0.851352632 0.280382066
5097385 -0.850981712 0.280996561
5107285 -0.850804269 0.281322777
5117185 -0.850546419 0.281591385
5127085 -0.850439429 0.282365471
5136985 -0.850263476 0.282543957
5146885 -0.849766194 0.282879143
5156785 -0.849570155 0.283370792
5166685 -0.849333763 0.283872127
5176585 -0.849186778 0.284078061
5186485 -0.848992288 0.284609049
5196385 -0.848775148 0.284867435
5206285 -0.848443925 0.285242021
5216185 -0.848230957 0.285799384
5226085 -0.848110198 0.286007195
5235985 -0.84767276 0.286656916
5245885 -0.847429275 0.286911815
5255785 -0.847555398 0.287345528
5265685 -0.847024261 0.287653535
5275585 -0.846689879 0.288078486
5285485 -0.846639037 0.288437962
5295385 -0.846368193 0.288771718
5305285 -0.846029102 0.289228081
5315185 -0.846111416 0.289598435
5325085 -0.845647454 0.289982885
5334985 -0.845475316 0.290519744
5344885 -0.845466196 0.290891796
5354785 -0.845147609 0.29108861
5364685 -0.844730436 0.291663765
5374585 -0.844771265 0.292016178
5384385 -0.844387531 0.292469531
5394285 -0.844220578 0.292876958
5404185 -0.844122648 0.29333508
5414085 -0.84392929 0.293581306
5423985 -0.843505322 0.293914228
5433885 -0.843492627 0.294513821
5443785 -0.84313023 0.294936418
5453685 -0.842955052 0.295218944
5463585 -0.843039095 0.295586884
5473485 -0.842539131 0.296015113
5483385 -0.84216988 0.29634431
5493285 -0.842116892 0.296847552
5503185 -0.841861367 0.297336578
5513085 -0.841465115 0.297710865
5522985 -0.841285824 0.298148363
5532885 -0.841093719 0.298251479
5542785 -0.840794742 0.298622339
5552685 -0.840658128 0.299166232
5562585 -0.840365707 0.29944247
5572485 -0.840141296 0.299758017
5582385 -0.840138494 0.300322532
5592285 -0.839655935 0.300645858
5602185 -0.8394894 0.301004171
5612085 -0.839356422 0.301562905
5621985 -0.839073777 0.301860332
5631885 -0.838651478 0.30203396
5641785 -0.838428556 0.302752524
5651685 -0.838370978 0.303054124
5661585 -0.838014423 0.303265273
5671485 -0.837919235 0.304012566
5681385 -0.837780475 0.304017931
5691285 -0.837474703 0.30456984
5701185 -0.837440133 0.305024325
5710985 -0.836940586 0.305375128
5720885 -0.83678323 0.305559515
5730785 -0.83659321 0.306323915
5740685 -0.836459398 0.306464016
5750585 -0.836187541 0.30685842
5760485 -0.835970461 0.307458579
5770385 -0.83560878 0.307633072
5780285 -0.835419714 0.308009803
5790185 -0.835445523 0.308385699
5800085 -0.834978699 0.308844447
5809985 -0.834726452 0.30907306
5819885 -0.834605693 0.309545934
5829785 -0.83430463 0.309854507
5839685 -0.834105014 0.31011182
5849585 -0.834084868 0.310602933
5859485 -0.833720147 0.310996472
5869385 -0.833302378 0.311302393
5879285 -0.833356618 0.311664283
5889185 -0.832903981 0.311866074
5899085 -0.832732856 0.312335491
5908985 -0.83257997 0.312878936
5918885 -0.832362115 0.313083529
5928785 -0.832044243 0.313481092
5938685 -0.831983268 0.314149141
5948585 -0.831798791 0.314508855
5958485 -0.831417739 0.31475833
5968385 -0.831228494 0.315177053
5978285 -0.831062495 0.315554618
5988185 -0.830712735 0.315782845
5998085 -0.830726563 0.31639859
6007985 -0.83030641 0.316548973
6017885 -0.830162525 0.317209869
6027785 -0.829979062 0.317548334
6037685 -0.829703569 0.317658245
6047582 -0.829636991 0.318103194
6057382 -0.829142212 0.318564355
6067282 -0.828863203 0.318964838
6077182 -0.828907251 0.319265067
6087082 -0.828532695 0.31982091
6096982 -0.828405737 0.320032536
6106882 -0.828155875 0.32026273
