# HZ S RI R 50
50000 -0.99094218 0.014069218
64800 -0.989489436 0.017364824
79600 -0.988048315 0.019860507
94400 -0.986528038 0.022038312
109200 -0.985149085 0.023678822
124000 -0.983882606 0.025265378
138900 -0.982621312 0.026737516
153700 -0.981592714 0.028066715
168500 -0.980602264 0.029140735
183300 -0.979556918 0.030228851
198100 -0.978671908 0.03106179
212900 -0.977759122 0.032476745
227800 -0.976791977 0.033773314
242600 -0.975839972 0.03499772
257400 -0.975195705 0.0365992
272200 -0.974397361 0.03768159
287000 -0.973496735 0.038751497
301800 -0.972921371 0.040258064
316700 -0.972114324 0.04114592
331500 -0.971272528 0.04239843
346300 -0.970697879 0.043703213
361100 -0.969765424 0.044343613
375900 -0.969199299 0.045763224
390700 -0.968557894 0.046801317
405600 -0.967873215 0.047951437
420400 -0.96715492 0.049006033
435200 -0.966437339 0.050025448
450000 -0.96582657 0.051075156
464800 -0.965240418 0.052096288
479600 -0.96473509 0.053141508
494500 -0.964114844 0.054180946
509300 -0.963459432 0.055213112
524100 -0.962905287 0.056438125
538900 -0.962436676 0.057262618
553700 -0.961792707 0.058238863
568500 -0.961166203 0.059501659
583400 -0.960672736 0.060345254
598200 -0.960267663 0.061351034
613000 -0.959742844 0.062509402
627800 -0.958963394 0.06350664
642600 -0.958469212 0.064494311
657400 -0.958330035 0.065372243
672300 -0.957662343 0.066477879
687100 -0.957031548 0.067439317
701900 -0.956631839 0.068117
716700 -0.95614016 0.06904263
731500 -0.955732405 0.070032835
746300 -0.955164074 0.071041703
761200 -0.954644083 0.071969732
776000 -0.954109191 0.072832092
790800 -0.953712344 0.073827445
805600 -0.95320183 0.074683986
820400 -0.952750504 0.075773738
835300 -0.952474832 0.076662398
850100 -0.951720178 0.077463097
864900 -0.951524615 0.07824409
879700 -0.95081669 0.079109862
894500 -0.950509905 0.080275863
909300 -0.950206875 0.080980844
924200 -0.949722349 0.081840798
939000 -0.949268221 0.082629844
953800 -0.948818743 0.083627112
968600 -0.948351442 0.084343679
983400 -0.948052167 0.085401259
998200 -0.947551429 0.086215816
1013100 -0.947024166 0.087186247
1027900 -0.94671303 0.087918706
1042700 -0.946305513 0.088826768
1057500 -0.945804893 0.089903511
1072300 -0.945358455 0.090558551
1087100 -0.945192217 0.091333083
1102000 -0.944806814 0.092566058
1116800 -0.944082498 0.093173757
1131600 -0.943761587 0.094172932
1146400 -0.943267464 0.094953693
1161200 -0.942750632 0.095810845
1176000 -0.942445158 0.096766442
1190900 -0.942178189 0.097594261
1205700 -0.941686868 0.098321661
1220500 -0.941197037 0.099467791
1235300 -0.940814256 0.100095994
1250100 -0.940400362 0.101091615
1264900 -0.939996719 0.101915657
1279800 -0.93963319 0.102588847
1294600 -0.93924421 0.103298217
1309400 -0.939071655 0.104320757
1324200 -0.938574612 0.105143502
1339000 -0.93811649 0.105908133
1353800 -0.937801241 0.106643706
1368700 -0.937338232 0.107544139
1383500 -0.936921775 0.108336515
1398300 -0.936553597 0.109237462
1413100 -0.936244606 0.110116213
1427900 -0.935884356 0.11075589
1442700 -0.935502409 0.111640959
1457600 -0.934972584 0.112650446
1472400 -0.934649407 0.113300547
1487200 -0.934131324 0.11400824
1502000 -0.933970212 0.114922687
1516800 -0.933651387 0.115657635
1531700 -0.933279156 0.116515643
1546517 -0.932823657 0.117290757
1561317 -0.932409167 0.118019081
1576117 -0.932010889 0.118878208
1590917 -0.931608021 0.119707129
1605717 -0.931232511 0.120480306
1620517 -0.930948019 0.121290303
1635417 -0.930418729 0.122302025
1650217 -0.930154204 0.123018108
1665017 -0.929634928 0.123650029
1679817 -0.929382622 0.124630622
1694617 -0.928886592 0.125386282
1709417 -0.928625881 0.125917613
1724317 -0.928277432 0.126783996
1739117 -0.928056538 0.127572923
1753917 -0.927368283 0.128466337
1768717 -0.927185416 0.129174843
1783517 -0.926984071 0.130056187
1798317 -0.926477909 0.130642414
1813217 -0.926082193 0.131623461
1828017 -0.925834417 0.132446303
1842817 -0.925562918 0.132950127
1857617 -0.9251464 0.133762046
1872417 -0.924824357 0.134698331
1887217 -0.924311935 0.135337114
1902117 -0.924134135 0.13623239
1916917 -0.923769772 0.136869415
1931717 -0.923512578 0.13770768
1946517 -0.922904014 0.138481259
1961317 -0.922600686 0.139272779
1976117 -0.922196924 0.139816731
1991017 -0.921752572 0.140794888
2005817 -0.921405613 0.141395673
2020617 -0.921039521 0.14233224
2035417 -0.920866191 0.142954185
2050217 -0.920370399 0.143638104
2065017 -0.920088708 0.14434494
2079917 -0.919698834 0.14524281
2094717 -0.919350981 0.145881757
2109517 -0.918759644 0.14678958
2124317 -0.918718695 0.147508859
2139117 -0.918108344 0.147974386
2153917 -0.918021678 0.149008631
2168817 -0.917638838 0.149812951
2183617 -0.917301833 0.150363802
2198417 -0.916830003 0.151230975
2213217 -0.916768252 0.151764065
2228017 -0.916231691 0.152887597
2242817 -0.915998995 0.15346831
2257717 -0.915456712 0.154272183
2272517 -0.915233373 0.154895067
2287317 -0.914893567 0.155840069
2302117 -0.914560794 0.156431734
2316917 -0.913933217 0.157231986
2331817 -0.913651823 0.15790382
2346617 -0.913392424 0.158646449
2361417 -0.913143992 0.159325614
2376217 -0.912535727 0.160025328
2391017 -0.912342369 0.16073738
2405817 -0.911887586 0.161374017
2420717 -0.911639034 0.16205883
2435517 -0.911044538 0.162739887
2450317 -0.910920977 0.163329049
2465117 -0.910538375 0.164283126
2479917 -0.910333693 0.165024101
2494717 -0.909678876 0.165655374
2509617 -0.909456908 0.166544556
2524417 -0.909091234 0.167322486
2539217 -0.908825039 0.167900696
2554017 -0.908383548 0.169017985
2568817 -0.908278644 0.169556185
2583617 -0.907951116 0.170428231
2598517 -0.907620847 0.170918703
2613317 -0.907156348 0.17187485
2628117 -0.906944215 0.172432377
2642917 -0.906632065 0.173286989
2657717 -0.906389832 0.173843875
2672517 -0.906054437 0.174705982
2687417 -0.905837655 0.17527467
2702217 -0.905495345 0.176097363
2717017 -0.904993534 0.176605463
2731817 -0.904809176 0.177398905
2746617 -0.904372513 0.178133502
2761417 -0.904136836 0.178574576
2776317 -0.903435766 0.179420486
2791117 -0.903373181 0.180080622
2805917 -0.902948856 0.18082863
2820717 -0.902597427 0.181486964
2835517 -0.902133703 0.182334512
2850317 -0.901840209 0.182849913
2865217 -0.901491761 0.183740511
2880017 -0.901305198 0.18447785
2894817 -0.90078783 0.185127124
2909617 -0.900600969 0.185814291
2924417 -0.900296628 0.186571553
2939217 -0.899969518 0.18712224
2954117 -0.899490535 0.187961742
2968917 -0.899096548 0.188501238
2983717 -0.898811399 0.189492613
2998517 -0.898466289 0.189876928
3013317 -0.898246049 0.190691679
3028217 -0.897883832 0.191387355
3043034 -0.89752078 0.191709935
3057834 -0.897082269 0.192617461
3072634 -0.896748781 0.193419948
3087434 -0.896274328 0.194052472
3102234 -0.895958602 0.194507598
3117034 -0.895760536 0.195344164
3131934 -0.895374298 0.195750609
3146734 -0.895157992 0.196650534
3161534 -0.89468038 0.197370842
3176334 -0.894400954 0.197951912
3191134 -0.894163846 0.198665276
3205934 -0.893739283 0.199358955
3220834 -0.893380105 0.200050517
3235634 -0.893023252 0.200753748
3250434 -0.892778933 0.201271772
3265234 -0.892458379 0.20211257
3280034 -0.892471313 0.20246981
3294834 -0.891731262 0.203668698
3309734 -0.891391277 0.204177856
3324534 -0.891098439 0.20494458
3339334 -0.890682101 0.20555754
3354134 -0.890442013 0.206259205
3368934 -0.890114367 0.206791698
3383734 -0.889631271 0.207557842
3398634 -0.889433085 0.208111628
3413434 -0.889108538 0.209101513
3428234 -0.888682842 0.209518134
3443034 -0.888370037 0.210352689
3457834 -0.888313233 0.210821643
3472634 -0.887611031 0.211527794
3487534 -0.887402474 0.212210685
3502334 -0.886978268 0.212930098
3517134 -0.886707246 0.213640242
3531934 -0.886363267 0.214228063
3546734 -0.886088609 0.214907184
3561534 -0.885675251 0.21545808
3576434 -0.885404706 0.216176584
3591234 -0.884832084 0.216992825
3606034 -0.884560525 0.217596009
3620834 -0.884389579 0.218375742
3635634 -0.884030342 0.218927502
3650434 -0.88364458 0.219693228
3665334 -0.883227229 0.220321029
3680134 -0.882957041 0.221054643
3694934 -0.882677793 0.221392735
3709734 -0.882301092 0.222187221
3724534 -0.881878674 0.222805112
3739334 -0.881522059 0.223344251
3754234 -0.881320416 0.223945766
3769034 -0.880943655 0.224822834
3783834 -0.880624115 0.225314691
3798634 -0.880343675 0.226048365
3813434 -0.879919528 0.226666122
3828334 -0.879551529 0.227347373
3843134 -0.879426598 0.227902412
3857934 -0.879004538 0.22862254
3872734 -0.878537297 0.229388073
3887534 -0.87828195 0.229952573
3902334 -0.877974808 0.230596035
3917234 -0.877703368 0.231450974
3932034 -0.877497494 0.232041701
3946834 -0.877158403 0.232665613
3961634 -0.876793801 0.233272984
3976434 -0.87631452 0.233856096
3991234 -0.875966966 0.234452366
4006134 -0.87558484 0.234998971
4020934 -0.875161767 0.235607564
4035734 -0.874640464 0.236282482
4050534 -0.874521434 0.236901968
4065334 -0.874007463 0.237433522
4080134 -0.873609364 0.238046497
4095034 -0.873179078 0.238802611
4109834 -0.872997224 0.239494189
4124634 -0.872826695 0.240212649
4139434 -0.872285842 0.24064058
4154234 -0.872128069 0.24153456
4169034 -0.871798098 0.242062121
4183934 -0.871620833 0.242974787
4198734 -0.871394336 0.243538349
4213534 -0.871070504 0.244329407
4228334 -0.870702683 0.244866237
4243134 -0.870449483 0.245437636
4257934 -0.870004653 0.245950266
4272834 -0.869766414 0.246709913
4287634 -0.869496107 0.246999144
4302434 -0.868919551 0.247698709
4317234 -0.868684887 0.248381793
4332034 -0.868287742 0.248998612
4346834 -0.867918252 0.249578386
4361734 -0.867625474 0.250161767
4376534 -0.86742115 0.25053206
4391334 -0.86702907 0.251366794
4406134 -0.866666913 0.252120286
4420934 -0.86617726 0.252699643
4435734 -0.865951299 0.25311312
4450634 -0.865473151 0.253804117
4465434 -0.865138292 0.254524022
4480234 -0.864782094 0.255205988
4495034 -0.864436089 0.255929738
4509834 -0.864142775 0.256560474
4524734 -0.863654375 0.257169425
4539551 -0.863506555 0.257902711
4554351 -0.863140523 0.258442431
4569151 -0.862857162 0.259116232
4583951 -0.8624807 0.259730726
4598751 -0.86226046 0.26039052
4613551 -0.861864864 0.261090487
4628451 -0.861748278 0.261666238
4643251 -0.861088395 0.262356489
4658051 -0.861002206 0.263039588
4672851 -0.860608577 0.263720452
4687651 -0.860480725 0.264092087
4702451 -0.859994173 0.264669269
4717351 -0.859760642 0.265216082
4732151 -0.859104156 0.265972077
4746951 -0.858934938 0.266436129
4761751 -0.858503222 0.267182379
4776551 -0.858214318 0.26796174
4791351 -0.857880771 0.26843211
4806251 -0.857590079 0.268898963
4821051 -0.857285559 0.269562244
4835851 -0.856843769 0.270082145
4850651 -0.856478512 0.270758152
4865451 -0.856055498 0.271362125
4880251 -0.855805695 0.27213031
4895151 -0.855379998 0.272518992
4909951 -0.855250537 0.273188143
4924751 -0.854804813 0.273706436
4939551 -0.854638397 0.274587899
4954351 -0.854252159 0.275082945
4969151 -0.854112565 0.275594532
4984051 -0.853737056 0.276213049
4998851 -0.853242099 0.276786088
5013651 -0.85283631 0.277400642
5028451 -0.852688074 0.277907729
5043251 -0.852150976 0.278607666
5058051 -0.852035939 0.279230535
5072951 -0.851520955 0.279771924
5087751 -0.85123527 0.280313789
5102551 -0.850871384 0.281097471
5117351 -0.850562691 0.281606912
5132151 -0.850163519 0.282188296
5146951 -0.849796414 0.282803684
5161851 -0.84938246 0.283348798
5176651 -0.848948955 0.283828616
5191451 -0.848617851 0.284677833
5206251 -0.8483693 0.285308063
5221051 -0.847884476 0.285966068
5235851 -0.847662985 0.286373645
5250751 -0.847567319 0.286999583
5265551 -0.846920073 0.287485301
5280351 -0.846675813 0.288379073
5295151 -0.846367299 0.288776785
5309951 -0.846037983 0.289349883
5324851 -0.845704674 0.289969533
5339651 -0.845490932 0.290594428
5354451 -0.844933807 0.291118413
5369251 -0.844724595 0.291564583
5384051 -0.844368755 0.292291432
5398851 -0.84401673 0.29286161
5413751 -0.843625009 0.293551504
5428551 -0.843320786 0.294030606
5443351 -0.843044221 0.294794052
5458151 -0.842629253 0.29530853
5472951 -0.842467665 0.296038389
5487751 -0.841917872 0.296443581
5502651 -0.841452002 0.297126084
5517451 -0.841172397 0.297668695
5532251 -0.840840697 0.298304319
5547051 -0.840640008 0.298718839
5561851 -0.840139567 0.299321502
5576651 -0.839763283 0.300065696
5591551 -0.839670956 0.300727307
5606351 -0.839082896 0.301097899
5621151 -0.838795065 0.301747471
5635951 -0.838523209 0.302393943
5650751 -0.838285505 0.3031708
5665551 -0.838120579 0.303507208
5680451 -0.837656736 0.304104298
5695251 -0.837222099 0.304573267
5710051 -0.83720529 0.305164396
5724851 -0.836711943 0.305861413
5739651 -0.836356461 0.306215465
5754451 -0.836010575 0.306972175
5769351 -0.835624992 0.307225316
5784151 -0.83520025 0.308000952
5798951 -0.83509624 0.308545082
5813751 -0.834563314 0.30911833
5828551 -0.83414191 0.309495657
5843351 -0.833889424 0.310107141
5858251 -0.833593666 0.310775995
5873051 -0.833332896 0.311258822
5887851 -0.832841753 0.311797857
5902651 -0.832552015 0.312592297
5917451 -0.83232522 0.313101589
5932251 -0.831928849 0.313759654
5947151 -0.831549286 0.314130097
5961951 -0.831181824 0.314878642
5976751 -0.830726385 0.315358042
5991551 -0.830675482 0.316153109
6006351 -0.830107331 0.316441923
6021251 -0.830108463 0.317186981
6036068 -0.829467236 0.317522585
6050868 -0.829293429 0.318083465
6065668 -0.829001843 0.318580627
6080468 -0.828454852 0.319269984
6095268 -0.828267872 0.319718062
6110068 -0.827983021 0.320540994
6124968 -0.827647149 0.32078123
6139768 -0.827119171 0.321457564
6154568 -0.82697308 0.321939736
6169368 -0.826545178 0.322452425
6184168 -0.826336205 0.323068141
6198968 -0.825975775 0.323719352
6213868 -0.825715899 0.324228763
6228668 -0.825218558 0.324718564
6243468 -0.825067043 0.325149714
6258268 -0.824545621 0.325758397
6273068 -0.824468195 0.32623139
6287868 -0.823956966 0.326767176
6302768 -0.823752582 0.327147871
6317568 -0.823280394 0.327751725
6332368 -0.823163688 0.328197151
6347168 -0.822805702 0.328708261
6361968 -0.822655797 0.329303205
6376768 -0.822230696 0.329840838
6391668 -0.822195112 0.330351531
6406468 -0.821752369 0.330910593
6421268 -0.821547925 0.331561505
6436068 -0.821202635 0.332026541
6450868 -0.821061313 0.332571923
6465668 -0.820686936 0.333231836
6480568 -0.820368111 0.33389008
6495368 -0.819864749 0.334348261
6510168 -0.819727838 0.334927022
6524968 -0.819222211 0.335707485
6539768 -0.81908816 0.336557298
6554568 -0.81834799 0.337095499
6569468 -0.817825198 0.337968319
6584268 -0.817163527 0.338621228
6599068 -0.816660463 0.33937329
6613868 -0.815909445 0.340333431
6628668 -0.815061151 0.341170459
6643468 -0.81470865 0.341577887
6658368 -0.81420809 0.342218518
6673168 -0.814017713 0.342447876
6687968 -0.813462436 0.343239843
6702768 -0.813177943 0.343795329
6717568 -0.812670052 0.344534337
6732368 -0.812395572 0.345242142
6747268 -0.811809182 0.345671057
6762068 -0.811552286 0.346207052
6776868 -0.811227202 0.346655815
6791668 -0.810778558 0.347168862
6806468 -0.810403406 0.347739785
6821368 -0.81019634 0.348468452
6836168 -0.809640824 0.348765283
6850968 -0.809577763 0.3493191
6865768 -0.808963775 0.349782913
6880568 -0.808801591 0.350415498
6895368 -0.808703064 0.350645959
6910268 -0.808420181 0.351260244
6925068 -0.808302104 0.351676106
6939868 -0.807904958 0.352300971
6954668 -0.807576596 0.352798104
6969468 -0.807000398 0.353611111
6984268 -0.806851267 0.35382086
6999168 -0.806585133 0.354321479
7013968 -0.806407749 0.354918628
7028768 -0.806108117 0.355383813
7043568 -0.806063771 0.355559527
7058368 -0.805590152 0.356179952
7073168 -0.805496275 0.356706053
7088068 -0.804882705 0.357155799
7102868 -0.804721057 0.357739061
7117668 -0.804303705 0.358132034
7132468 -0.803990423 0.358668386
7147268 -0.8034271 0.35913676
7162068 -0.803296148 0.359519869
7176968 -0.802919149 0.359934955
7191768 -0.802606284 0.360654085
7206568 -0.802107989 0.361085802
7221368 -0.801909387 0.36154887
7236168 -0.801448523 0.362061768
7250968 -0.80117768 0.362501591
7265868 -0.80090326 0.362972497
7280668 -0.800402939 0.363782018
7295468 -0.800101459 0.364095807
7310268 -0.7999022 0.36479476
7325068 -0.79943329 0.365309715
7339868 -0.799147248 0.365802496
7354768 -0.798741102 0.366314888
7369568 -0.798287153 0.367044001
7384368 -0.797832727 0.367421567
7399168 -0.797507941 0.367954105
7413968 -0.797294497 0.368385523
7428768 -0.796950161 0.369130969
7443668 -0.796720743 0.36957398
7458468 -0.79615122 0.370123684
7473268 -0.795913279 0.370503693
7488068 -0.795459151 0.37131986
7502868 -0.795143902 0.371979564
7517768 -0.794876456 0.372468829
7532585 -0.794306993 0.372935324
7547385 -0.794003129 0.373611509
7562185 -0.793516576 0.373978257
7576985 -0.79337722 0.374575316
7591785 -0.792930662 0.374958753
7606585 -0.792593777 0.375756204
7621485 -0.792103946 0.376074701
7636285 -0.792005777 0.37670052
7651085 -0.791586995 0.377151668
7665885 -0.791284084 0.377839535
7680685 -0.790917336 0.378173977
7695485 -0.790342211 0.378544121
7710385 -0.789927184 0.379130244
7725185 -0.78976798 0.379778534
7739985 -0.789336025 0.380127727
7754785 -0.789065897 0.380677521
7769585 -0.788707971 0.381130576
7784385 -0.788327574 0.381809443
7799285 -0.788021922 0.382181257
7814085 -0.787549436 0.382669597
7828885 -0.787106513 0.383141487
7843685 -0.786906063 0.383819043
7858485 -0.786557793 0.384346455
7873285 -0.786124706 0.3849155
7888185 -0.785748064 0.385292023
7902985 -0.785381615 0.386000454
7917785 -0.785168886 0.386354237
7932585 -0.784788966 0.387113213
7947385 -0.784474134 0.387590557
7962185 -0.784058034 0.388233602
7977085 -0.783795237 0.388477057
7991885 -0.783454477 0.38927555
8006685 -0.783096075 0.389732778
8021485 -0.782824099 0.390340477
8036285 -0.782432198 0.390509992
8051085 -0.78179717 0.391040116
8065985 -0.781438291 0.391617357
8080785 -0.781070053 0.392075091
8095585 -0.780756056 0.392744004
8110385 -0.780380547 0.393320977
8125185 -0.779961109 0.39352706
8139985 -0.779730081 0.39440453
8154885 -0.779348313 0.394679129
8169685 -0.778987944 0.395091205
8184485 -0.778635442 0.395413398
8199285 -0.778389632 0.396324723
8214085 -0.777802288 0.396655917
8228885 -0.777569413 0.397220313
8243785 -0.777045011 0.397684603
8258585 -0.776686191 0.398186594
8273385 -0.776353895 0.398645669
8288185 -0.776102423 0.399215996
8302985 -0.775731801 0.399617701
8317885 -0.775509595 0.400152027
8332685 -0.775077342 0.400576591
8347485 -0.774742424 0.401004701
8362285 -0.774392426 0.401379972
8377085 -0.774048209 0.402196735
8391885 -0.773740112 0.402512907
8406785 -0.773370623 0.403177231
8421585 -0.773094832 0.40373826
8436385 -0.772700309 0.404213041
8451185 -0.772290468 0.404540419
8465985 -0.772047758 0.405058056
8480785 -0.771574079 0.405456006
8495685 -0.771165728 0.406204432
8510485 -0.770716667 0.406629353
8525285 -0.770346701 0.407219469
8540085 -0.769950747 0.407588124
8554885 -0.769610285 0.408212244
8569685 -0.769164621 0.408503681
8584585 -0.768651962 0.409160047
8599385 -0.768495976 0.409554302
8614185 -0.768190145 0.410114973
8628985 -0.767849326 0.410588592
8643785 -0.767346978 0.411273747
8658585 -0.767169117 0.411535471
8673485 -0.766495883 0.41210556
8688285 -0.766446352 0.412432074
8703085 -0.765928089 0.413042753
8717885 -0.765580534 0.413462549
8732685 -0.765345692 0.41404289
8747485 -0.764988899 0.414569675
8762385 -0.76457411 0.415004819
8777185 -0.764351487 0.415479123
8791985 -0.763773679 0.416091591
8806785 -0.763455331 0.416445314
8821585 -0.76306796 0.417067229
8836385 -0.762811779 0.417439699
8851285 -0.762174785 0.418171882
8866085 -0.762089848 0.418355017
8880885 -0.761761665 0.418968498
8895685 -0.761471807 0.419359236
8910485 -0.760965704 0.419855356
8925285 -0.760762095 0.420368224
8940185 -0.760357916 0.420912921
8954985 -0.760097682 0.421274334
8969785 -0.759715199 0.421781688
8984585 -0.759370684 0.422353118
8999385 -0.758958876 0.422849893
9014285 -0.758613586 0.423206239
9029102 -0.758337438 0.423921316
9043902 -0.758208453 0.424313455
9058702 -0.757558345 0.424834132
9073502 -0.75732696 0.425112843
9088302 -0.756825864 0.425614386
